 (000.000000)  vcan0  0000014A   [8]  00 00 00 8B 89 56 F0 08
 (000.002255)  vcan0  0000017C   [8]  C0 00 00 00 00 00 00 00
 (000.003230)  vcan0  000001A3   [8]  00 00 00 00 00 00 00 00
 (000.208722)  vcan0  0000014A   [8]  00 00 00 8B 96 AE B5 6C
 (000.213512)  vcan0  0000017C   [8]  C0 00 00 00 00 00 00 00
 (000.215301)  vcan0  000001A3   [8]  00 00 00 00 00 00 00 00
 (000.420156)  vcan0  0000014A   [8]  00 00 00 8B 9D 5A AA BE
 (000.420887)  vcan0  0000017C   [8]  C0 00 00 00 00 00 00 00
 (000.421491)  vcan0  000001A3   [8]  00 00 00 00 00 00 00 00
 (000.634322)  vcan0  0000014A   [8]  00 00 00 8B A4 06 7A D0
 (000.635277)  vcan0  0000017C   [8]  C0 00 00 00 00 00 00 00
 (000.635937)  vcan0  000001A3   [8]  00 00 00 00 00 00 00 00
 (000.843786)  vcan0  0000014A   [8]  00 00 00 8B AA B2 70 22
 (000.846793)  vcan0  0000017C   [8]  C0 00 00 00 00 00 00 00
 (000.847639)  vcan0  000001A3   [8]  00 00 00 00 00 00 00 00
 (001.057078)  vcan0  0000014A   [8]  00 00 00 8B B1 5E 40 34
 (001.057874)  vcan0  0000017C   [8]  C0 00 00 00 00 00 00 00
 (001.058443)  vcan0  000001A3   [8]  00 00 00 00 00 00 00 00
 (001.285646)  vcan0  0000014A   [8]  00 00 00 8B BC 25 70 80
 (001.286466)  vcan0  0000017C   [8]  C0 00 00 00 00 00 00 00
 (001.287108)  vcan0  000001A3   [8]  00 00 00 00 00 00 00 00
 (001.500311)  vcan0  0000014A   [8]  00 00 00 8A D6 4B E5 A8
 (001.500952)  vcan0  0000017C   [8]  C0 00 00 00 00 00 00 00
 (001.501490)  vcan0  000001A3   [8]  00 00 00 00 00 00 00 00
 (001.717295)  vcan0  0000014A   [8]  00 00 00 73 01 29 05 48
 (001.718330)  vcan0  0000017C   [8]  C0 00 00 00 00 00 00 00
 (001.718945)  vcan0  000001A3   [8]  00 00 00 00 00 00 00 00
 (001.932695)  vcan0  0000014A   [8]  00 00 00 86 3F 50 2B 6A
 (001.933528)  vcan0  0000017C   [8]  C0 00 00 00 00 00 00 00
 (001.934936)  vcan0  000001A3   [8]  00 00 00 00 00 00 00 00
 (002.146619)  vcan0  0000014A   [8]  00 00 00 7E 49 A2 D3 A6
 (002.147456)  vcan0  0000017C   [8]  C0 00 00 00 00 00 00 00
 (002.148252)  vcan0  000001A3   [8]  00 00 00 00 00 00 00 00
 (002.363913)  vcan0  0000014A   [8]  00 00 00 7D D2 1D 0F 70
 (002.365965)  vcan0  0000017C   [8]  C0 00 00 00 00 00 00 00
 (002.367158)  vcan0  000001A3   [8]  00 00 00 00 00 00 00 00
 (002.589850)  vcan0  0000014A   [8]  00 00 00 7C CE 51 D2 DE
 (002.591140)  vcan0  0000017C   [8]  C0 00 00 00 00 00 00 00
 (002.591832)  vcan0  000001A3   [8]  00 00 00 00 00 00 00 00
 (002.808749)  vcan0  0000014A   [8]  00 00 00 6E 4F F5 05 AA
 (002.809559)  vcan0  0000017C   [8]  C0 00 00 00 00 00 00 00
 (002.810264)  vcan0  000001A3   [8]  00 00 00 00 00 00 00 00
 (003.021082)  vcan0  0000014A   [8]  00 00 00 7E C1 7D 8A 40
 (003.021796)  vcan0  0000017C   [8]  C0 00 00 00 00 00 00 00
 (003.022805)  vcan0  000001A3   [8]  00 00 00 00 00 00 00 00
 (003.234890)  vcan0  0000014A   [8]  00 00 00 78 8E 68 C1 9C
 (003.235716)  vcan0  0000017C   [8]  C0 00 00 00 00 00 00 00
 (003.236343)  vcan0  000001A3   [8]  00 00 00 00 00 00 00 00
 (003.460838)  vcan0  0000014A   [8]  00 00 00 6F 84 BB CA 24
 (003.462135)  vcan0  0000017C   [8]  C0 00 00 00 00 00 00 00
 (003.463149)  vcan0  000001A3   [8]  00 00 00 00 00 00 00 00
 (003.677570)  vcan0  0000014A   [8]  00 00 00 7A DB 3F 51 8C
 (003.678362)  vcan0  0000017C   [8]  C0 00 00 00 00 00 00 00
 (003.679017)  vcan0  000001A3   [8]  00 00 00 00 00 00 00 00
 (003.897841)  vcan0  0000014A   [8]  00 00 00 78 49 8A 01 86
 (003.898572)  vcan0  0000017C   [8]  C0 00 00 00 00 00 00 00
 (003.899693)  vcan0  000001A3   [8]  00 00 00 00 00 00 00 00
 (004.121790)  vcan0  0000014A   [8]  00 00 00 70 37 12 DB FC
 (004.122541)  vcan0  0000017C   [8]  C0 00 00 00 00 00 00 00
 (004.123120)  vcan0  000001A3   [8]  00 00 00 00 00 00 00 00
 (004.341038)  vcan0  0000014A   [8]  00 00 00 79 41 D8 6A 08
 (004.341715)  vcan0  0000017C   [8]  C0 00 00 00 00 00 00 00
 (004.342342)  vcan0  000001A3   [8]  00 00 00 00 00 00 00 00
 (004.559797)  vcan0  0000014A   [8]  00 00 00 75 F4 55 50 BC
 (004.560525)  vcan0  0000017C   [8]  C0 00 00 00 00 00 00 00
 (004.561166)  vcan0  000001A3   [8]  00 00 00 00 00 00 00 00
 (004.777903)  vcan0  0000014A   [8]  00 00 00 77 97 20 A7 C8
 (004.778610)  vcan0  0000017C   [8]  C0 00 00 00 00 00 00 00
 (004.779193)  vcan0  000001A3   [8]  00 00 00 00 00 00 00 00
 (004.996777)  vcan0  0000014A   [8]  00 00 00 7D A1 39 E7 66
 (004.997516)  vcan0  0000017C   [8]  B3 00 00 00 00 00 00 00
 (004.998241)  vcan0  000001A3   [8]  00 00 00 00 00 00 00 00
 (005.230032)  vcan0  0000014A   [8]  00 00 00 77 11 2D 22 CE
 (005.231841)  vcan0  0000017C   [8]  00 00 00 00 00 00 04 C0
 (005.235432)  vcan0  000001A3   [8]  00 00 00 00 00 00 00 00
 (005.454773)  vcan0  0000014A   [8]  00 00 00 7D B3 6E C5 F0
 (005.456012)  vcan0  0000017C   [8]  00 00 00 00 00 00 04 C0
 (005.457034)  vcan0  000001A3   [8]  00 00 00 00 00 00 00 00
 (005.673273)  vcan0  0000014A   [8]  00 00 00 7D D9 36 44 60
 (005.674642)  vcan0  0000017C   [8]  00 00 00 00 00 00 04 C0
 (005.679557)  vcan0  000001A3   [8]  00 00 00 00 00 00 00 00
 (005.890540)  vcan0  0000014A   [8]  00 00 00 7E 77 04 2A 98
 (005.891323)  vcan0  0000017C   [8]  37 00 00 00 00 00 00 00
 (005.892057)  vcan0  000001A3   [8]  00 00 00 00 00 00 00 00
 (006.116041)  vcan0  0000014A   [8]  00 00 00 7D D9 5D 60 18
 (006.116721)  vcan0  0000017C   [8]  C0 00 00 00 00 00 00 00
 (006.117320)  vcan0  000001A3   [8]  00 00 00 00 00 00 00 00
 (006.339119)  vcan0  0000014A   [8]  00 00 00 7E 93 72 0D 58
 (006.339880)  vcan0  0000017C   [8]  C0 00 00 00 00 00 00 00
 (006.340573)  vcan0  000001A3   [8]  00 00 00 00 00 00 00 00
 (006.562342)  vcan0  0000014A   [8]  00 00 00 81 73 2D 4F 58
 (006.563160)  vcan0  0000017C   [8]  C0 00 00 00 00 00 00 00
 (006.563758)  vcan0  000001A3   [8]  00 00 00 00 00 00 00 00
 (006.784087)  vcan0  0000014A   [8]  00 00 00 7B E2 D0 5D A4
 (006.784778)  vcan0  0000017C   [8]  C0 00 00 00 00 00 00 00
 (006.785376)  vcan0  000001A3   [8]  00 00 00 00 00 00 00 00
 (007.007285)  vcan0  0000014A   [8]  00 00 00 74 3B DC 84 1C
 (007.008209)  vcan0  0000017C   [8]  2B 00 00 00 00 00 00 00
 (007.013738)  vcan0  000001A3   [8]  00 00 00 00 00 00 00 00
 (007.225188)  vcan0  0000014A   [8]  00 00 00 7A 85 CD 5E E6
 (007.227057)  vcan0  0000017C   [8]  00 00 00 00 00 00 04 C0
 (007.228218)  vcan0  000001A3   [8]  00 00 00 00 00 00 00 00
 (007.447863)  vcan0  0000014A   [8]  00 00 00 79 4A DA F4 D8
 (007.448915)  vcan0  0000017C   [8]  00 00 00 00 00 00 04 C0
 (007.449796)  vcan0  000001A3   [8]  00 00 00 00 00 00 00 00
 (007.664697)  vcan0  0000014A   [8]  00 00 00 79 58 73 F0 32
 (007.665628)  vcan0  0000017C   [8]  AB 00 00 00 00 00 00 00
 (007.666471)  vcan0  000001A3   [8]  00 00 00 00 00 00 00 00
 (007.889152)  vcan0  0000014A   [8]  00 00 00 78 18 76 2C 62
 (007.890126)  vcan0  0000017C   [8]  C0 00 00 00 00 00 00 00
 (007.890997)  vcan0  000001A3   [8]  00 00 00 00 00 00 00 00
 (008.121250)  vcan0  0000014A   [8]  00 00 00 77 42 AE 67 00
 (008.126136)  vcan0  0000017C   [8]  C0 00 00 00 00 00 00 00
 (008.127922)  vcan0  000001A3   [8]  00 00 00 00 00 00 00 00
 (008.339665)  vcan0  0000014A   [8]  00 00 00 77 7C 07 AE FC
 (008.344237)  vcan0  0000017C   [8]  C0 00 00 00 00 00 00 00
 (008.345307)  vcan0  000001A3   [8]  00 00 00 00 00 00 00 00
 (008.557838)  vcan0  0000014A   [8]  00 00 00 77 D4 96 C2 56
 (008.558650)  vcan0  0000017C   [8]  B6 00 00 00 00 00 00 00
 (008.559433)  vcan0  000001A3   [8]  00 00 00 00 00 00 00 00
 (008.777561)  vcan0  0000014A   [8]  00 00 00 77 69 AF 36 48
 (008.778523)  vcan0  0000017C   [8]  00 00 00 00 00 00 04 C0
 (008.779313)  vcan0  000001A3   [8]  00 00 00 00 00 00 00 00
 (008.994766)  vcan0  0000014A   [8]  00 00 00 71 AD 59 B9 D8
 (008.996502)  vcan0  0000017C   [8]  00 00 00 00 00 00 04 C0
 (008.997246)  vcan0  000001A3   [8]  00 00 00 00 00 00 00 00
 (009.213097)  vcan0  0000014A   [8]  00 00 00 6E 8D BC D8 0C
 (009.214395)  vcan0  0000017C   [8]  00 00 00 00 00 00 04 C0
 (009.215179)  vcan0  000001A3   [8]  00 00 00 00 00 00 00 00
 (009.444353)  vcan0  0000014A   [8]  00 00 00 70 77 40 B2 FE
 (009.445165)  vcan0  0000017C   [8]  77 00 00 00 00 00 00 00
 (009.445918)  vcan0  000001A3   [8]  00 00 00 00 00 00 00 00
 (009.682083)  vcan0  0000014A   [8]  00 00 00 71 B2 30 3D 4E
 (009.690056)  vcan0  0000017C   [8]  C0 00 00 00 00 00 00 00
 (009.691373)  vcan0  000001A3   [8]  00 00 00 00 00 00 00 00
 (009.916477)  vcan0  0000014A   [8]  00 00 00 6E A6 32 50 96
 (009.917507)  vcan0  0000017C   [8]  C0 00 00 00 00 00 00 00
 (009.918378)  vcan0  000001A3   [8]  00 00 00 00 00 00 00 00
 (010.155465)  vcan0  0000014A   [8]  00 00 00 6C 66 DE A2 36
 (010.156317)  vcan0  0000017C   [8]  C0 00 00 00 00 00 00 00
 (010.156940)  vcan0  000001A3   [8]  00 00 00 00 00 00 00 00
 (010.377982)  vcan0  0000014A   [8]  00 00 00 71 29 65 20 D4
 (010.379026)  vcan0  0000017C   [8]  6B 00 00 00 00 00 00 00
 (010.379798)  vcan0  000001A3   [8]  00 00 00 00 00 00 00 00
 (010.607411)  vcan0  0000014A   [8]  00 00 00 6F 83 05 C6 E8
 (010.608173)  vcan0  0000017C   [8]  00 00 00 00 00 00 04 C0
 (010.608941)  vcan0  000001A3   [8]  00 00 00 00 00 00 00 00
 (010.841784)  vcan0  0000014A   [8]  00 00 00 6E BD E3 96 E6
 (010.842660)  vcan0  0000017C   [8]  00 00 00 00 00 00 04 C0
 (010.843283)  vcan0  000001A3   [8]  00 00 00 00 00 00 00 00
 (011.060251)  vcan0  0000014A   [8]  00 00 00 6D 63 C3 E2 E0
 (011.061316)  vcan0  0000017C   [8]  92 00 00 00 00 00 00 00
 (011.062022)  vcan0  000001A3   [8]  00 00 00 00 00 00 00 00
 (011.284391)  vcan0  0000014A   [8]  00 00 00 6D 98 7A D2 B6
 (011.285072)  vcan0  0000017C   [8]  C0 00 00 00 00 00 00 00
 (011.285607)  vcan0  000001A3   [8]  00 00 00 00 00 00 00 00
 (011.531135)  vcan0  0000014A   [8]  00 00 00 6E 04 6B F6 D8
 (011.531868)  vcan0  0000017C   [8]  C0 00 00 00 00 00 00 00
 (011.532452)  vcan0  000001A3   [8]  00 00 00 00 00 00 00 00
 (011.771522)  vcan0  0000014A   [8]  00 00 00 6D 4E 8C 74 E4
 (011.776595)  vcan0  0000017C   [8]  C0 00 00 00 00 00 00 00
 (011.777279)  vcan0  000001A3   [8]  00 00 00 00 00 00 00 00
 (012.004188)  vcan0  0000014A   [8]  00 00 00 E4 84 20 6D 72
 (012.004977)  vcan0  0000017C   [8]  14 00 00 00 00 00 00 00
 (012.005643)  vcan0  000001A3   [8]  00 00 00 00 00 00 00 00
 (012.250928)  vcan0  0000014A   [8]  00 00 01 5B B9 B4 8B 3E
 (012.251656)  vcan0  0000017C   [8]  00 00 00 00 00 00 04 C0
 (012.252238)  vcan0  000001A3   [8]  00 00 00 00 00 00 00 00
 (012.495579)  vcan0  0000014A   [8]  00 00 01 42 8A AD E6 62
 (012.496276)  vcan0  0000017C   [8]  00 00 00 00 00 00 01 C0
 (012.496848)  vcan0  000001A3   [8]  00 00 00 00 00 00 00 00
 (012.726249)  vcan0  0000014A   [8]  00 00 00 CB 55 19 C8 94
 (012.726956)  vcan0  0000017C   [8]  C0 00 00 00 00 00 00 00
 (012.727623)  vcan0  000001A3   [8]  00 00 00 00 00 00 00 00
 (012.958045)  vcan0  0000014A   [8]  00 00 00 AD DD A4 C6 C4
 (012.959377)  vcan0  0000017C   [8]  C0 00 00 00 00 00 00 00
 (012.960396)  vcan0  000001A3   [8]  00 00 00 00 00 00 00 00
 (013.215341)  vcan0  0000014A   [8]  00 00 00 C7 4D 75 67 00
 (013.216319)  vcan0  0000017C   [8]  C0 00 00 00 00 00 00 00
 (013.217084)  vcan0  000001A3   [8]  00 00 00 00 00 00 00 00
 (013.448183)  vcan0  0000014A   [8]  00 00 00 A2 76 FE 49 42
 (013.449421)  vcan0  0000017C   [8]  C0 00 00 00 00 00 00 00
 (013.450479)  vcan0  000001A3   [8]  00 00 00 00 00 00 00 00
 (013.697844)  vcan0  0000014A   [8]  00 00 00 92 A8 36 8E AA
 (013.698883)  vcan0  0000017C   [8]  68 00 00 00 00 00 00 00
 (013.699683)  vcan0  000001A3   [8]  00 00 00 00 00 00 00 00
 (013.941120)  vcan0  0000014A   [8]  00 00 00 94 47 EA 50 66
 (013.943372)  vcan0  0000017C   [8]  00 00 00 00 00 00 04 C0
 (013.949998)  vcan0  000001A3   [8]  00 00 00 00 00 00 00 00
 (014.190100)  vcan0  0000014A   [8]  00 00 00 87 41 53 2A D2
 (014.191655)  vcan0  0000017C   [8]  00 00 00 00 00 00 04 C0
 (014.198236)  vcan0  000001A3   [8]  00 00 00 00 00 00 00 00
 (014.429285)  vcan0  0000014A   [8]  00 00 00 7F 07 F8 9A F0
 (014.435527)  vcan0  0000017C   [8]  8A 00 00 00 00 00 00 00
 (014.436378)  vcan0  000001A3   [8]  00 00 00 00 00 00 00 00
 (014.645649)  vcan0  0000014A   [8]  00 00 00 7F 4A 92 D4 64
 (014.646383)  vcan0  0000017C   [8]  C0 00 00 00 00 00 00 00
 (014.647085)  vcan0  000001A3   [8]  00 00 00 00 00 00 00 00
 (014.881592)  vcan0  0000014A   [8]  00 00 00 7A 0D 42 3B D0
 (014.882391)  vcan0  0000017C   [8]  C0 00 00 00 00 00 00 00
 (014.882940)  vcan0  000001A3   [8]  00 00 00 00 00 00 00 00
 (015.116271)  vcan0  0000014A   [8]  00 00 00 76 3F 4E C7 18
 (015.117038)  vcan0  0000017C   [8]  C0 00 00 00 00 00 00 00
 (015.117710)  vcan0  000001A3   [8]  00 00 00 00 00 00 00 00
 (015.354183)  vcan0  0000014A   [8]  00 00 00 77 3A C4 60 94
 (015.355036)  vcan0  0000017C   [8]  17 00 00 00 00 00 00 00
 (015.355823)  vcan0  000001A3   [8]  00 00 00 00 00 00 00 00
 (015.608217)  vcan0  0000014A   [8]  00 00 00 75 F7 3D D6 3A
 (015.608970)  vcan0  0000017C   [8]  00 00 00 00 00 00 04 C0
 (015.609553)  vcan0  000001A3   [8]  00 00 00 00 00 00 00 00
 (015.849027)  vcan0  0000014A   [8]  00 00 00 72 12 20 6A 92
 (015.850059)  vcan0  0000017C   [8]  00 00 00 00 00 00 04 C0
 (015.851114)  vcan0  000001A3   [8]  00 00 00 00 00 00 00 00
 (016.091307)  vcan0  0000014A   [8]  01 FF FF FA DC 8C B3 38
 (016.092265)  vcan0  0000017C   [8]  C0 00 00 00 00 00 00 00
 (016.093035)  vcan0  000001A3   [8]  00 00 00 00 00 00 00 00
 (016.326549)  vcan0  0000014A   [8]  00 00 00 2F 90 08 12 82
 (016.327688)  vcan0  0000017C   [8]  C0 00 00 00 00 00 00 00
 (016.328397)  vcan0  000001A3   [8]  00 00 00 00 00 00 00 00
 (016.560575)  vcan0  0000014A   [8]  00 00 00 68 A3 0B EC 9C
 (016.565662)  vcan0  0000017C   [8]  C0 00 00 00 00 00 00 00
 (016.566564)  vcan0  000001A3   [8]  00 00 00 00 00 00 00 00
 (016.801345)  vcan0  0000014A   [8]  01 FF FF F1 6D 77 E1 6E
 (016.802078)  vcan0  0000017C   [8]  C0 00 00 00 00 00 00 00
 (016.802805)  vcan0  000001A3   [8]  00 00 00 00 00 00 00 00
 (017.056841)  vcan0  0000014A   [8]  00 00 00 20 74 12 7C 66
 (017.059034)  vcan0  0000017C   [8]  B3 00 00 00 00 00 00 00
 (017.060217)  vcan0  000001A3   [8]  00 00 00 00 00 00 00 00
 (017.292589)  vcan0  0000014A   [8]  01 FF FF AB 8A D7 EE 4A
 (017.293248)  vcan0  0000017C   [8]  00 00 00 00 00 00 04 C0
 (017.293772)  vcan0  000001A3   [8]  00 00 00 00 00 00 00 00
 (017.526418)  vcan0  0000014A   [8]  00 00 00 22 C0 6C 0C 18
 (017.527204)  vcan0  0000017C   [8]  00 00 00 00 00 00 04 C0
 (017.528038)  vcan0  000001A3   [8]  00 00 00 00 00 00 00 00
 (017.766125)  vcan0  0000014A   [8]  00 00 00 99 F5 FF DF 62
 (017.767175)  vcan0  0000017C   [8]  00 00 00 00 00 00 04 00
 (017.767828)  vcan0  000001A3   [8]  00 00 00 00 00 00 00 00
 (018.000819)  vcan0  0000014A   [8]  00 00 00 22 C0 6C 0C 18
 (018.001485)  vcan0  0000017C   [8]  C0 00 00 00 00 00 00 00
 (018.002313)  vcan0  000001A3   [8]  00 00 00 00 00 00 00 00
 (018.238863)  vcan0  0000014A   [8]  00 00 00 57 30 AD 98 CE
 (018.253644)  vcan0  0000017C   [8]  C0 00 00 00 00 00 00 00
 (018.254546)  vcan0  000001A3   [8]  00 00 00 00 00 00 00 00
 (018.475359)  vcan0  0000014A   [8]  00 00 00 70 B5 78 0F BC
 (018.476394)  vcan0  0000017C   [8]  C0 00 00 00 00 00 00 00
 (018.479950)  vcan0  000001A3   [8]  00 00 00 00 00 00 00 00
 (018.694443)  vcan0  0000014A   [8]  01 FF FF F9 7F E3 E8 9E
 (018.695618)  vcan0  0000017C   [8]  C0 00 00 00 00 00 00 00
 (018.696639)  vcan0  000001A3   [8]  00 00 00 00 00 00 00 00
 (018.923055)  vcan0  0000014A   [8]  00 00 00 70 B5 78 0F BC
 (018.923972)  vcan0  0000017C   [8]  C0 00 00 00 00 00 00 00
 (018.926504)  vcan0  000001A3   [8]  00 00 00 00 00 00 00 00
 (019.164676)  vcan0  0000014A   [8]  00 00 00 3D 5A 5C CF DA
 (019.165637)  vcan0  0000017C   [8]  00 00 00 00 00 00 04 C0
 (019.166379)  vcan0  000001A3   [8]  00 00 00 00 00 00 00 00
 (019.407296)  vcan0  0000014A   [8]  00 00 00 7B 71 D4 F1 54
 (019.409031)  vcan0  0000017C   [8]  00 00 00 00 00 00 04 C0
 (019.409766)  vcan0  000001A3   [8]  00 00 00 00 00 00 00 00
 (019.636608)  vcan0  0000014A   [8]  00 00 00 64 AC BA 05 5E
 (019.637750)  vcan0  0000017C   [8]  00 00 00 00 00 00 04 C0
 (019.638971)  vcan0  000001A3   [8]  00 00 00 00 00 00 00 00
 (019.848701)  vcan0  0000014A   [8]  00 00 00 2A 99 EA 9F 8C
 (019.850464)  vcan0  0000017C   [8]  C0 00 00 00 00 00 00 00
 (019.851803)  vcan0  000001A3   [8]  00 00 00 00 00 00 00 00
 (020.077647)  vcan0  0000014A   [8]  00 00 00 8F 7F 86 B7 78
 (020.079231)  vcan0  0000017C   [8]  C0 00 00 00 00 00 00 00
 (020.080281)  vcan0  000001A3   [8]  00 00 00 00 00 00 00 00
 (020.304511)  vcan0  0000014A   [8]  00 00 00 79 C3 81 D5 44
 (020.306575)  vcan0  0000017C   [8]  C0 00 00 00 00 00 00 00
 (020.308138)  vcan0  000001A3   [8]  00 00 00 00 00 00 00 00
 (020.533521)  vcan0  0000014A   [8]  00 00 00 32 69 08 4F 80
 (020.534591)  vcan0  0000017C   [8]  C0 00 00 00 00 00 00 00
 (020.535781)  vcan0  000001A3   [8]  00 00 00 00 00 00 00 00
 (020.759498)  vcan0  0000014A   [8]  00 00 00 90 D6 97 74 3E
 (020.760554)  vcan0  0000017C   [8]  C0 00 00 00 00 00 00 00
 (020.765556)  vcan0  000001A3   [8]  00 00 00 00 00 00 00 00
 (020.992318)  vcan0  0000014A   [8]  00 00 00 7A D4 9A A7 86
 (020.995420)  vcan0  0000017C   [8]  00 00 00 00 00 00 04 40
 (020.996116)  vcan0  000001A3   [8]  00 00 00 00 00 00 00 00
 (021.227957)  vcan0  0000014A   [8]  00 00 00 3F 89 23 E2 86
 (021.235589)  vcan0  0000017C   [8]  00 00 00 00 00 00 04 C0
 (021.236516)  vcan0  000001A3   [8]  00 00 00 00 00 00 00 00
 (021.480492)  vcan0  0000014A   [8]  00 00 00 8B 0F 08 E4 2C
 (021.481341)  vcan0  0000017C   [8]  00 00 00 00 00 00 04 C0
 (021.482028)  vcan0  000001A3   [8]  00 00 00 00 00 00 00 00
 (021.707488)  vcan0  0000014A   [8]  00 00 00 67 D8 E8 96 0A
 (021.708788)  vcan0  0000017C   [8]  BB 00 00 00 00 00 00 00
 (021.710074)  vcan0  000001A3   [8]  00 00 00 00 00 00 00 00
 (021.927392)  vcan0  0000014A   [8]  00 00 00 71 C4 BF 1C C4
 (021.928414)  vcan0  0000017C   [8]  C0 00 00 00 00 00 00 00
 (021.929594)  vcan0  000001A3   [8]  00 00 00 00 00 00 00 00
 (022.157164)  vcan0  0000014A   [8]  00 00 00 79 39 45 67 3E
 (022.158402)  vcan0  0000017C   [8]  C0 00 00 00 00 00 00 00
 (022.163268)  vcan0  000001A3   [8]  00 00 00 00 00 00 00 00
 (022.384211)  vcan0  0000014A   [8]  00 00 00 72 DB 15 9E CC
 (022.385307)  vcan0  0000017C   [8]  C0 00 00 00 00 00 00 00
 (022.386442)  vcan0  000001A3   [8]  00 00 00 00 00 00 00 00
 (022.626291)  vcan0  0000014A   [8]  00 00 00 62 42 2F 5A FC
 (022.626978)  vcan0  0000017C   [8]  C0 00 00 00 00 00 00 00
 (022.627512)  vcan0  000001A3   [8]  00 00 00 00 00 00 00 00
 (022.866670)  vcan0  0000014A   [8]  00 00 00 83 0E B0 F4 50
 (022.867449)  vcan0  0000017C   [8]  00 00 00 00 00 00 04 C0
 (022.868653)  vcan0  000001A3   [8]  00 00 00 00 00 00 00 00
 (023.098339)  vcan0  0000014A   [8]  00 00 00 68 AA 46 20 A4
 (023.099000)  vcan0  0000017C   [8]  00 00 00 00 00 00 04 C0
 (023.099571)  vcan0  000001A3   [8]  00 00 00 00 00 00 00 00
 (023.333329)  vcan0  0000014A   [8]  00 00 00 77 23 D2 5C 28
 (023.334224)  vcan0  0000017C   [8]  00 00 00 00 00 00 04 C0
 (023.334823)  vcan0  000001A3   [8]  00 00 00 00 00 00 00 00
 (023.570142)  vcan0  0000014A   [8]  00 00 00 7A 4C D0 A8 46
 (023.570968)  vcan0  0000017C   [8]  89 00 00 00 00 00 00 00
 (023.571594)  vcan0  000001A3   [8]  00 00 00 00 00 00 00 00
 (023.806882)  vcan0  0000014A   [8]  00 00 00 69 C2 44 DC 32
 (023.807605)  vcan0  0000017C   [8]  C0 00 00 00 00 00 00 00
 (023.808953)  vcan0  000001A3   [8]  00 00 00 00 00 00 00 00
 (024.040203)  vcan0  0000014A   [8]  00 00 00 7A EF E1 CF 2E
 (024.040974)  vcan0  0000017C   [8]  C0 00 00 00 00 00 00 00
 (024.041628)  vcan0  000001A3   [8]  00 00 00 00 00 00 00 00
 (024.270815)  vcan0  0000014A   [8]  00 00 00 78 20 37 EB 2C
 (024.272480)  vcan0  0000017C   [8]  C0 00 00 00 00 00 00 00
 (024.273226)  vcan0  000001A3   [8]  00 00 00 00 00 00 00 00
 (024.506243)  vcan0  0000014A   [8]  00 00 00 6C 39 0A 39 8A
 (024.507181)  vcan0  0000017C   [8]  A4 00 00 00 00 00 00 00
 (024.508389)  vcan0  000001A3   [8]  00 00 00 00 00 00 00 00
 (024.737412)  vcan0  0000014A   [8]  00 00 00 7C 3B 86 15 AE
 (024.738501)  vcan0  0000017C   [8]  00 00 00 00 00 00 04 C0
 (024.739222)  vcan0  000001A3   [8]  00 00 00 00 00 00 00 00
 (024.981769)  vcan0  0000014A   [8]  00 00 00 72 91 B3 E1 42
 (024.982671)  vcan0  0000017C   [8]  00 00 00 00 00 00 04 C0
 (024.983335)  vcan0  000001A3   [8]  00 00 00 00 00 00 00 00
 (025.235801)  vcan0  0000014A   [8]  00 00 00 76 68 23 60 A2
 (025.236480)  vcan0  0000017C   [8]  00 00 00 00 00 00 02 00
 (025.237047)  vcan0  000001A3   [8]  00 00 00 00 00 00 00 00
 (025.474795)  vcan0  0000014A   [8]  00 00 00 78 32 D1 EF FA
 (025.478516)  vcan0  0000017C   [8]  C0 00 00 00 00 00 00 00
 (025.479499)  vcan0  000001A3   [8]  00 00 00 00 00 00 00 00
 (025.714725)  vcan0  0000014A   [8]  00 00 00 72 57 D2 56 70
 (025.716504)  vcan0  0000017C   [8]  C0 00 00 00 00 00 00 00
 (025.717423)  vcan0  000001A3   [8]  00 00 00 00 00 00 00 00
 (025.952248)  vcan0  0000014A   [8]  00 00 00 78 7E 9B B4 B2
 (025.952957)  vcan0  0000017C   [8]  C0 00 00 00 00 00 00 00
 (025.953564)  vcan0  000001A3   [8]  00 00 00 00 00 00 00 00
 (026.187059)  vcan0  0000014A   [8]  00 00 00 77 76 3A 9C 4E
 (026.188360)  vcan0  0000017C   [8]  C0 00 00 00 00 00 00 00
 (026.190097)  vcan0  000001A3   [8]  00 00 00 00 00 00 00 00
 (026.429080)  vcan0  0000014A   [8]  00 00 00 73 0D FB FC BE
 (026.430089)  vcan0  0000017C   [8]  C0 00 00 00 00 00 00 00
 (026.431100)  vcan0  000001A3   [8]  00 00 00 00 00 00 00 00
 (026.677029)  vcan0  0000014A   [8]  00 00 00 79 21 27 FB 0C
 (026.677977)  vcan0  0000017C   [8]  00 00 00 00 00 00 04 C0
 (026.678606)  vcan0  000001A3   [8]  00 00 00 00 00 00 00 00
 (026.922306)  vcan0  0000014A   [8]  00 00 00 75 4F 2D 1B 90
 (026.922777)  vcan0  0000017C   [8]  00 00 00 00 00 00 04 C0
 (026.923188)  vcan0  000001A3   [8]  00 00 00 00 00 00 00 00
 (027.168399)  vcan0  0000014A   [8]  00 00 00 76 F3 A8 A3 72
 (027.168788)  vcan0  0000017C   [8]  00 00 00 00 00 00 04 C0
 (027.169116)  vcan0  000001A3   [8]  00 00 00 00 00 00 00 00
 (027.418726)  vcan0  0000014A   [8]  00 00 00 77 9C A0 B6 5E
 (027.419505)  vcan0  0000017C   [8]  A9 00 00 00 00 00 00 00
 (027.419963)  vcan0  000001A3   [8]  00 00 00 00 00 00 00 00
 (027.661032)  vcan0  0000014A   [8]  00 00 00 75 43 E0 67 BA
 (027.661942)  vcan0  0000017C   [8]  C0 00 00 00 00 00 00 00
 (027.662457)  vcan0  000001A3   [8]  00 00 00 00 00 00 00 00
 (027.913288)  vcan0  0000014A   [8]  00 00 00 77 BB 18 BA DC
 (027.914231)  vcan0  0000017C   [8]  00 00 00 00 00 00 00 00
 (027.914676)  vcan0  000001A3   [8]  00 00 00 00 00 00 00 00
 (028.174980)  vcan0  0000014A   [8]  00 00 00 77 52 0F 04 88
 (028.175458)  vcan0  0000017C   [8]  00 00 00 00 00 00 01 40
 (028.175867)  vcan0  000001A3   [8]  00 00 00 00 00 00 00 00
 (028.425520)  vcan0  0000014A   [8]  00 00 00 75 92 CA 41 92
 (028.426132)  vcan0  0000017C   [8]  79 00 00 00 00 00 00 00
 (028.426526)  vcan0  000001A3   [8]  00 00 00 00 00 00 00 00
 (028.676133)  vcan0  0000014A   [8]  00 00 00 77 B6 61 85 70
 (028.676592)  vcan0  0000017C   [8]  C0 00 00 00 00 00 00 00
 (028.676988)  vcan0  000001A3   [8]  00 00 00 00 00 00 00 00
