 (1709195374.609449)  vcan0  0000014A   [8]  01 00 00 00 00 00 00 00
 (1709195374.610621)  vcan0  0000017C   [8]  00 00 00 00 00 00 00 00
 (1709195374.611048)  vcan0  000001A3   [8]  00 00 00 00 00 00 00 00
 (1709195374.638575)  vcan0  0000014A   [8]  01 00 00 00 00 00 00 00
 (1709195374.639447)  vcan0  0000017C   [8]  00 00 00 00 00 00 00 00
 (1709195374.639910)  vcan0  000001A3   [8]  00 00 00 00 00 00 00 00
 (1709195374.669208)  vcan0  0000014A   [8]  01 2C 00 00 00 00 00 00
 (1709195374.669932)  vcan0  0000017C   [8]  C0 00 00 00 00 00 00 00
 (1709195374.670309)  vcan0  000001A3   [8]  00 00 00 00 00 00 00 00
 (1709195374.695937)  vcan0  0000014A   [8]  01 2C 00 00 00 00 00 00
 (1709195374.696463)  vcan0  0000017C   [8]  C0 00 00 00 00 00 00 00
 (1709195374.696835)  vcan0  000001A3   [8]  00 00 00 00 00 00 00 00
 (1709195374.772214)  vcan0  0000014A   [8]  01 2C 00 00 00 00 00 00
 (1709195374.773063)  vcan0  0000017C   [8]  C0 00 00 00 00 00 00 00
 (1709195374.773715)  vcan0  000001A3   [8]  00 00 00 00 00 00 00 00
 (1709195374.809123)  vcan0  0000014A   [8]  01 2C 00 00 00 00 00 00
 (1709195374.809646)  vcan0  0000017C   [8]  C0 00 00 00 00 00 00 00
 (1709195374.810047)  vcan0  000001A3   [8]  00 00 00 00 00 00 00 00
 (1709195374.849584)  vcan0  0000014A   [8]  01 2C 00 00 00 00 00 00
 (1709195374.850459)  vcan0  0000017C   [8]  C0 00 00 00 00 00 00 00
 (1709195374.851005)  vcan0  000001A3   [8]  00 00 00 00 00 00 00 00
 (1709195374.875408)  vcan0  0000014A   [8]  01 2C 00 00 00 00 00 00
 (1709195374.875842)  vcan0  0000017C   [8]  C0 00 00 00 00 00 00 00
 (1709195374.876160)  vcan0  000001A3   [8]  00 00 00 00 00 00 00 00
 (1709195374.895400)  vcan0  0000014A   [8]  01 2C 00 00 00 00 00 00
 (1709195374.895841)  vcan0  0000017C   [8]  C0 00 00 00 00 00 00 00
 (1709195374.896161)  vcan0  000001A3   [8]  00 00 00 00 00 00 00 00
 (1709195374.932622)  vcan0  0000014A   [8]  01 2C 00 00 00 00 00 00
 (1709195374.933283)  vcan0  0000017C   [8]  C0 00 00 00 00 00 00 00
 (1709195374.933760)  vcan0  000001A3   [8]  00 00 00 00 00 00 00 00
 (1709195374.982744)  vcan0  0000014A   [8]  01 2C 00 00 00 00 00 00
 (1709195374.983960)  vcan0  0000017C   [8]  C0 00 00 00 00 00 00 00
 (1709195374.984805)  vcan0  000001A3   [8]  00 00 00 00 00 00 00 00
 (1709195375.031070)  vcan0  0000014A   [8]  01 2C 00 00 00 00 00 00
 (1709195375.033136)  vcan0  0000017C   [8]  C0 00 00 00 00 00 00 00
 (1709195375.033723)  vcan0  000001A3   [8]  00 00 00 00 01 00 00 00
 (1709195375.071734)  vcan0  0000014A   [8]  01 2A 00 00 00 00 00 00
 (1709195375.072377)  vcan0  0000017C   [8]  C0 00 00 00 00 00 00 00
 (1709195375.072786)  vcan0  000001A3   [8]  00 00 00 00 01 00 00 00
 (1709195375.100074)  vcan0  0000014A   [8]  01 2B 00 00 00 00 00 00
 (1709195375.100844)  vcan0  0000017C   [8]  C0 00 00 00 00 00 00 00
 (1709195375.101250)  vcan0  000001A3   [8]  00 00 00 00 01 00 00 00
 (1709195375.144398)  vcan0  0000014A   [8]  01 28 00 00 00 00 00 00
 (1709195375.145183)  vcan0  0000017C   [8]  C0 00 00 00 00 00 00 00
 (1709195375.145736)  vcan0  000001A3   [8]  00 00 00 00 01 00 00 00
 (1709195375.172502)  vcan0  0000014A   [8]  00 E8 00 00 00 00 00 00
 (1709195375.173126)  vcan0  0000017C   [8]  C0 00 00 00 00 00 00 00
 (1709195375.173588)  vcan0  000001A3   [8]  00 00 00 00 01 00 00 00
 (1709195375.200402)  vcan0  0000014A   [8]  01 07 00 00 00 00 00 00
 (1709195375.200906)  vcan0  0000017C   [8]  C0 00 00 00 00 00 00 00
 (1709195375.203327)  vcan0  000001A3   [8]  00 00 00 00 01 00 00 00
 (1709195375.235357)  vcan0  0000014A   [8]  01 0C 00 00 00 00 00 00
 (1709195375.235961)  vcan0  0000017C   [8]  C0 00 00 00 00 00 00 00
 (1709195375.236390)  vcan0  000001A3   [8]  00 00 00 00 01 00 00 00
 (1709195375.280082)  vcan0  0000014A   [8]  01 0C 00 00 00 00 00 00
 (1709195375.280555)  vcan0  0000017C   [8]  C0 00 00 00 00 00 00 00
 (1709195375.280903)  vcan0  000001A3   [8]  00 00 00 00 01 00 00 00
 (1709195375.316129)  vcan0  0000014A   [8]  01 01 00 00 00 00 00 00
 (1709195375.317364)  vcan0  0000017C   [8]  C0 00 00 00 00 00 00 00
 (1709195375.317921)  vcan0  000001A3   [8]  00 00 00 00 01 00 00 00
 (1709195375.347066)  vcan0  0000014A   [8]  01 03 00 00 00 00 00 00
 (1709195375.347532)  vcan0  0000017C   [8]  C0 00 00 00 00 00 00 00
 (1709195375.347961)  vcan0  000001A3   [8]  00 00 00 00 01 00 00 00
 (1709195375.391459)  vcan0  0000014A   [8]  01 06 00 00 00 00 00 00
 (1709195375.391867)  vcan0  0000017C   [8]  C0 00 00 00 00 00 00 00
 (1709195375.392230)  vcan0  000001A3   [8]  00 00 00 00 01 00 00 00
 (1709195375.466395)  vcan0  0000014A   [8]  00 EA 00 00 00 00 00 00
 (1709195375.467285)  vcan0  0000017C   [8]  C0 00 00 00 00 00 00 00
 (1709195375.468007)  vcan0  000001A3   [8]  00 00 00 00 01 00 00 00
 (1709195375.520958)  vcan0  0000014A   [8]  01 09 00 00 00 00 00 00
 (1709195375.521517)  vcan0  0000017C   [8]  C0 00 00 00 00 00 00 00
 (1709195375.521953)  vcan0  000001A3   [8]  00 00 00 00 01 00 00 00
 (1709195375.541460)  vcan0  0000014A   [8]  01 09 00 00 00 00 00 00
 (1709195375.542107)  vcan0  0000017C   [8]  C0 00 00 00 00 00 00 00
 (1709195375.542455)  vcan0  000001A3   [8]  00 00 00 00 01 00 00 00
 (1709195375.582310)  vcan0  0000014A   [8]  00 F1 00 00 00 00 00 00
 (1709195375.582821)  vcan0  0000017C   [8]  C0 00 00 00 00 00 00 00
 (1709195375.583243)  vcan0  000001A3   [8]  00 00 00 00 01 00 00 00
 (1709195375.599936)  vcan0  0000014A   [8]  00 F6 00 00 00 00 00 00
 (1709195375.600662)  vcan0  0000017C   [8]  C0 00 00 00 00 00 00 00
 (1709195375.601012)  vcan0  000001A3   [8]  00 00 00 00 01 00 00 00
 (1709195375.647256)  vcan0  0000014A   [8]  00 F7 00 00 00 00 00 00
 (1709195375.647954)  vcan0  0000017C   [8]  C0 00 00 00 00 00 00 00
 (1709195375.648385)  vcan0  000001A3   [8]  00 00 00 00 01 00 00 00
 (1709195375.678177)  vcan0  0000014A   [8]  01 06 00 00 00 00 00 00
 (1709195375.678618)  vcan0  0000017C   [8]  C0 00 00 00 00 00 00 00
 (1709195375.678948)  vcan0  000001A3   [8]  00 00 00 00 01 00 00 00
 (1709195375.710627)  vcan0  0000014A   [8]  01 0B 00 00 00 00 00 00
 (1709195375.711165)  vcan0  0000017C   [8]  C0 00 00 00 00 00 00 00
 (1709195375.711743)  vcan0  000001A3   [8]  00 00 00 00 01 00 00 00
 (1709195375.758896)  vcan0  0000014A   [8]  00 EB 00 00 00 00 00 00
 (1709195375.759561)  vcan0  0000017C   [8]  C0 00 00 00 00 00 00 00
 (1709195375.759941)  vcan0  000001A3   [8]  00 00 00 00 00 00 00 00
 (1709195375.786422)  vcan0  0000014A   [8]  00 EB 00 00 00 00 00 00
 (1709195375.786861)  vcan0  0000017C   [8]  C0 00 00 00 00 00 00 00
 (1709195375.787237)  vcan0  000001A3   [8]  00 00 00 00 00 00 00 00
 (1709195375.813985)  vcan0  0000014A   [8]  00 EB 00 00 00 00 00 00
 (1709195375.814413)  vcan0  0000017C   [8]  C0 00 00 00 00 00 00 00
 (1709195375.814732)  vcan0  000001A3   [8]  00 00 00 00 00 00 00 00
 (1709195375.848462)  vcan0  0000014A   [8]  00 F9 00 00 00 00 00 00
 (1709195375.848969)  vcan0  0000017C   [8]  C0 00 00 00 00 00 00 00
 (1709195375.849385)  vcan0  000001A3   [8]  00 00 00 00 02 00 00 00
 (1709195375.876845)  vcan0  0000014A   [8]  01 08 00 00 00 00 00 00
 (1709195375.878112)  vcan0  0000017C   [8]  C0 00 00 00 00 00 00 00
 (1709195375.879661)  vcan0  000001A3   [8]  00 00 00 00 02 00 00 00
 (1709195375.900475)  vcan0  0000014A   [8]  01 06 00 00 00 00 00 00
 (1709195375.901769)  vcan0  0000017C   [8]  C0 00 00 00 00 00 00 00
 (1709195375.902523)  vcan0  000001A3   [8]  00 00 00 00 02 00 00 00
 (1709195375.925584)  vcan0  0000014A   [8]  01 04 00 00 00 00 00 00
 (1709195375.926075)  vcan0  0000017C   [8]  C0 00 00 00 00 00 00 00
 (1709195375.926417)  vcan0  000001A3   [8]  00 00 00 00 02 00 00 00
 (1709195375.948977)  vcan0  0000014A   [8]  01 00 00 00 00 00 00 00
 (1709195375.949514)  vcan0  0000017C   [8]  C0 00 00 00 00 00 00 00
 (1709195375.949899)  vcan0  000001A3   [8]  00 00 00 00 02 00 00 00
 (1709195375.980345)  vcan0  0000014A   [8]  01 08 00 00 00 00 00 00
 (1709195375.980816)  vcan0  0000017C   [8]  B6 00 00 00 00 00 00 00
 (1709195375.981450)  vcan0  000001A3   [8]  00 00 00 00 02 00 00 00
 (1709195376.013316)  vcan0  0000014A   [8]  01 02 00 00 00 00 00 00
 (1709195376.013866)  vcan0  0000017C   [8]  00 00 00 00 00 00 04 C0
 (1709195376.014215)  vcan0  000001A3   [8]  00 00 00 00 02 00 00 00
 (1709195376.044338)  vcan0  0000014A   [8]  01 0B 00 00 00 00 00 00
 (1709195376.045542)  vcan0  0000017C   [8]  00 00 00 00 00 00 04 C0
 (1709195376.046156)  vcan0  000001A3   [8]  00 00 00 00 02 00 00 00
 (1709195376.080874)  vcan0  0000014A   [8]  01 08 00 00 00 00 00 00
 (1709195376.081484)  vcan0  0000017C   [8]  00 00 00 00 00 00 04 C0
 (1709195376.081902)  vcan0  000001A3   [8]  00 00 00 00 02 00 00 00
 (1709195376.103519)  vcan0  0000014A   [8]  01 0F 00 00 00 00 00 00
 (1709195376.104104)  vcan0  0000017C   [8]  00 00 00 00 00 00 04 C0
 (1709195376.104785)  vcan0  000001A3   [8]  00 00 00 00 02 00 00 00
 (1709195376.136187)  vcan0  0000014A   [8]  01 08 00 00 00 00 00 00
 (1709195376.136612)  vcan0  0000017C   [8]  00 00 00 00 00 00 04 C0
 (1709195376.136998)  vcan0  000001A3   [8]  00 00 00 00 02 00 00 00
 (1709195376.171298)  vcan0  0000014A   [8]  01 12 00 00 00 00 00 00
 (1709195376.171843)  vcan0  0000017C   [8]  00 00 00 00 00 00 04 C0
 (1709195376.172211)  vcan0  000001A3   [8]  00 00 00 00 02 00 00 00
 (1709195376.199101)  vcan0  0000014A   [8]  01 0E 00 00 00 00 00 00
 (1709195376.199638)  vcan0  0000017C   [8]  00 00 00 00 00 00 04 C0
 (1709195376.200049)  vcan0  000001A3   [8]  00 00 00 00 02 00 00 00
 (1709195376.222925)  vcan0  0000014A   [8]  01 0E 00 00 00 00 00 00
 (1709195376.223559)  vcan0  0000017C   [8]  00 00 00 00 00 00 04 C0
 (1709195376.224042)  vcan0  000001A3   [8]  00 00 00 00 02 00 00 00
 (1709195376.252751)  vcan0  0000014A   [8]  01 15 00 00 00 00 00 00
 (1709195376.253170)  vcan0  0000017C   [8]  05 00 00 00 00 00 00 00
 (1709195376.253514)  vcan0  000001A3   [8]  00 00 00 00 02 00 00 00
 (1709195376.278398)  vcan0  0000014A   [8]  01 0F 00 00 00 00 00 00
 (1709195376.278859)  vcan0  0000017C   [8]  7F 00 00 00 00 00 00 00
 (1709195376.279257)  vcan0  000001A3   [8]  00 00 00 00 02 00 00 00
 (1709195376.301845)  vcan0  0000014A   [8]  01 16 00 00 00 00 00 00
 (1709195376.302359)  vcan0  0000017C   [8]  C0 00 00 00 00 00 00 00
 (1709195376.302697)  vcan0  000001A3   [8]  00 00 00 00 02 00 00 00
 (1709195376.344782)  vcan0  0000014A   [8]  01 15 00 00 00 00 00 00
 (1709195376.345787)  vcan0  0000017C   [8]  C0 00 00 00 00 00 00 00
 (1709195376.346711)  vcan0  000001A3   [8]  00 00 00 00 02 00 00 00
 (1709195376.362373)  vcan0  0000014A   [8]  01 0B 00 00 00 00 00 00
 (1709195376.362845)  vcan0  0000017C   [8]  C0 00 00 00 00 00 00 00
 (1709195376.363153)  vcan0  000001A3   [8]  00 00 00 00 02 00 00 00
 (1709195376.390261)  vcan0  0000014A   [8]  01 0B 00 00 00 00 00 00
 (1709195376.390729)  vcan0  0000017C   [8]  C0 00 00 00 00 00 00 00
 (1709195376.391049)  vcan0  000001A3   [8]  00 00 00 00 02 00 00 00
 (1709195376.417029)  vcan0  0000014A   [8]  01 14 00 00 00 00 00 00
 (1709195376.417676)  vcan0  0000017C   [8]  C0 00 00 00 00 00 00 00
 (1709195376.418020)  vcan0  000001A3   [8]  00 00 00 00 02 00 00 00
 (1709195376.436778)  vcan0  0000014A   [8]  01 14 00 00 00 00 00 00
 (1709195376.437520)  vcan0  0000017C   [8]  C0 00 00 00 00 00 00 00
 (1709195376.438251)  vcan0  000001A3   [8]  00 00 00 00 02 00 00 00
 (1709195376.484676)  vcan0  0000014A   [8]  01 07 00 00 00 00 00 00
 (1709195376.485235)  vcan0  0000017C   [8]  C0 00 00 00 00 00 00 00
 (1709195376.485608)  vcan0  000001A3   [8]  00 00 00 00 02 00 00 00
 (1709195376.510258)  vcan0  0000014A   [8]  01 07 00 00 00 00 00 00
 (1709195376.510729)  vcan0  0000017C   [8]  C0 00 00 00 00 00 00 00
 (1709195376.511062)  vcan0  000001A3   [8]  00 00 00 00 02 00 00 00
 (1709195376.537586)  vcan0  0000014A   [8]  01 0C 00 00 00 00 00 00
 (1709195376.538285)  vcan0  0000017C   [8]  C0 00 00 00 00 00 00 00
 (1709195376.538650)  vcan0  000001A3   [8]  00 00 00 00 02 00 00 00
 (1709195376.563135)  vcan0  0000014A   [8]  00 FD 00 00 00 00 00 00
 (1709195376.563582)  vcan0  0000017C   [8]  C0 00 00 00 00 00 00 00
 (1709195376.563937)  vcan0  000001A3   [8]  00 00 00 00 02 00 00 00
 (1709195376.583849)  vcan0  0000014A   [8]  01 09 00 00 00 00 00 00
 (1709195376.586630)  vcan0  0000017C   [8]  C0 00 00 00 00 00 00 00
 (1709195376.587350)  vcan0  000001A3   [8]  00 00 00 00 02 00 00 00
 (1709195376.606704)  vcan0  0000014A   [8]  00 FB 00 00 00 00 00 00
 (1709195376.607403)  vcan0  0000017C   [8]  C0 00 00 00 00 00 00 00
 (1709195376.607887)  vcan0  000001A3   [8]  00 00 00 00 02 00 00 00
 (1709195376.660137)  vcan0  0000014A   [8]  01 07 00 00 00 00 00 00
 (1709195376.660924)  vcan0  0000017C   [8]  AF 00 00 00 00 00 00 00
 (1709195376.661531)  vcan0  000001A3   [8]  00 00 00 00 02 00 00 00
 (1709195376.684039)  vcan0  0000014A   [8]  01 03 00 00 00 00 00 00
 (1709195376.684682)  vcan0  0000017C   [8]  00 00 00 00 00 00 04 C0
 (1709195376.685041)  vcan0  000001A3   [8]  00 00 00 00 02 00 00 00
 (1709195376.702191)  vcan0  0000014A   [8]  01 03 00 00 00 00 00 00
 (1709195376.702625)  vcan0  0000017C   [8]  00 00 00 00 00 00 04 C0
 (1709195376.703720)  vcan0  000001A3   [8]  00 00 00 00 02 00 00 00
 (1709195376.723393)  vcan0  0000014A   [8]  01 03 00 00 00 00 00 00
 (1709195376.723975)  vcan0  0000017C   [8]  00 00 00 00 00 00 04 C0
 (1709195376.724391)  vcan0  000001A3   [8]  00 00 00 00 02 00 00 00
 (1709195376.748118)  vcan0  0000014A   [8]  01 07 00 00 00 00 00 00
 (1709195376.748644)  vcan0  0000017C   [8]  00 00 00 00 00 00 04 C0
 (1709195376.748963)  vcan0  000001A3   [8]  00 00 00 00 02 00 00 00
 (1709195376.774948)  vcan0  0000014A   [8]  00 FA 00 00 00 00 00 00
 (1709195376.775469)  vcan0  0000017C   [8]  00 00 00 00 00 00 04 C0
 (1709195376.775911)  vcan0  000001A3   [8]  00 00 00 00 02 00 00 00
 (1709195376.900504)  vcan0  0000014A   [8]  00 F7 00 00 00 00 00 00
 (1709195376.901040)  vcan0  0000017C   [8]  00 00 00 00 00 00 04 C0
 (1709195376.901458)  vcan0  000001A3   [8]  00 00 00 00 02 00 00 00
 (1709195376.941191)  vcan0  0000014A   [8]  01 09 00 00 00 00 00 00
 (1709195376.941662)  vcan0  0000017C   [8]  C0 00 00 00 00 00 00 00
 (1709195376.942051)  vcan0  000001A3   [8]  00 00 00 00 00 00 00 00
 (1709195376.977212)  vcan0  0000014A   [8]  01 00 00 00 00 00 00 00
 (1709195376.978024)  vcan0  0000017C   [8]  C0 00 00 00 00 00 00 00
 (1709195376.978493)  vcan0  000001A3   [8]  00 00 00 00 00 00 00 00
 (1709195377.007447)  vcan0  0000014A   [8]  01 00 00 00 00 00 00 00
 (1709195377.007986)  vcan0  0000017C   [8]  C0 00 00 00 00 00 00 00
 (1709195377.008340)  vcan0  000001A3   [8]  00 00 00 00 01 00 00 00
 (1709195377.030660)  vcan0  0000014A   [8]  01 05 00 00 00 00 00 00
 (1709195377.031137)  vcan0  0000017C   [8]  C0 00 00 00 00 00 00 00
 (1709195377.031515)  vcan0  000001A3   [8]  00 00 00 00 01 00 00 00
 (1709195377.058651)  vcan0  0000014A   [8]  01 04 00 00 00 00 00 00
 (1709195377.059106)  vcan0  0000017C   [8]  C0 00 00 00 00 00 00 00
 (1709195377.059437)  vcan0  000001A3   [8]  00 00 00 00 01 00 00 00
 (1709195377.110910)  vcan0  0000014A   [8]  01 09 00 00 00 00 00 00
 (1709195377.111546)  vcan0  0000017C   [8]  C0 00 00 00 00 00 00 00
 (1709195377.112863)  vcan0  000001A3   [8]  00 00 00 00 01 00 00 00
 (1709195377.165040)  vcan0  0000014A   [8]  01 09 00 00 00 00 00 00
 (1709195377.165580)  vcan0  0000017C   [8]  C0 00 00 00 00 00 00 00
 (1709195377.166206)  vcan0  000001A3   [8]  00 00 00 00 01 00 00 00
 (1709195377.200864)  vcan0  0000014A   [8]  01 03 00 00 00 00 00 00
 (1709195377.201977)  vcan0  0000017C   [8]  C0 00 00 00 00 00 00 00
 (1709195377.202333)  vcan0  000001A3   [8]  00 00 00 00 01 00 00 00
 (1709195377.253636)  vcan0  0000014A   [8]  01 09 00 00 00 00 00 00
 (1709195377.254295)  vcan0  0000017C   [8]  C0 00 00 00 00 00 00 00
 (1709195377.254656)  vcan0  000001A3   [8]  00 00 00 00 01 00 00 00
 (1709195377.290824)  vcan0  0000014A   [8]  01 09 00 00 00 00 00 00
 (1709195377.292015)  vcan0  0000017C   [8]  C0 00 00 00 00 00 00 00
 (1709195377.294198)  vcan0  000001A3   [8]  00 00 00 00 00 00 00 00
 (1709195377.322062)  vcan0  0000014A   [8]  00 FC 00 00 00 00 00 00
 (1709195377.323310)  vcan0  0000017C   [8]  C0 00 00 00 00 00 00 00
 (1709195377.324056)  vcan0  000001A3   [8]  00 00 00 00 00 00 00 00
 (1709195377.389983)  vcan0  0000014A   [8]  01 06 00 00 00 00 00 00
 (1709195377.390460)  vcan0  0000017C   [8]  C0 00 00 00 00 00 00 00
 (1709195377.390797)  vcan0  000001A3   [8]  00 00 00 00 02 00 00 00
 (1709195377.424983)  vcan0  0000014A   [8]  00 ED 00 00 00 00 00 00
 (1709195377.425405)  vcan0  0000017C   [8]  C0 00 00 00 00 00 00 00
 (1709195377.425838)  vcan0  000001A3   [8]  00 00 00 00 02 00 00 00
 (1709195377.446684)  vcan0  0000014A   [8]  00 ED 00 00 00 00 00 00
 (1709195377.447249)  vcan0  0000017C   [8]  C0 00 00 00 00 00 00 00
 (1709195377.447656)  vcan0  000001A3   [8]  00 00 00 00 02 00 00 00
 (1709195377.503938)  vcan0  0000014A   [8]  00 F7 00 00 00 00 00 00
 (1709195377.504952)  vcan0  0000017C   [8]  00 00 00 00 00 00 04 C0
 (1709195377.505432)  vcan0  000001A3   [8]  00 00 00 00 02 00 00 00
 (1709195377.535963)  vcan0  0000014A   [8]  01 0D 00 00 00 00 00 00
 (1709195377.536417)  vcan0  0000017C   [8]  00 00 00 00 00 00 04 C0
 (1709195377.536725)  vcan0  000001A3   [8]  00 00 00 00 02 00 00 00
 (1709195377.560666)  vcan0  0000014A   [8]  01 0D 00 00 00 00 00 00
 (1709195377.561433)  vcan0  0000017C   [8]  00 00 00 00 00 00 04 C0
 (1709195377.562828)  vcan0  000001A3   [8]  00 00 00 00 02 00 00 00
 (1709195377.621430)  vcan0  0000014A   [8]  00 FB 00 00 00 00 00 00
 (1709195377.621941)  vcan0  0000017C   [8]  00 00 00 00 00 00 04 C0
 (1709195377.622504)  vcan0  000001A3   [8]  00 00 00 00 02 00 00 00
 (1709195377.648881)  vcan0  0000014A   [8]  01 01 00 00 00 00 00 00
 (1709195377.649376)  vcan0  0000017C   [8]  00 00 00 00 00 00 04 C0
 (1709195377.649988)  vcan0  000001A3   [8]  00 00 00 00 02 00 00 00
 (1709195377.690433)  vcan0  0000014A   [8]  00 FC 00 00 00 00 00 00
 (1709195377.691044)  vcan0  0000017C   [8]  00 00 00 00 00 00 04 C0
 (1709195377.691523)  vcan0  000001A3   [8]  00 00 00 00 02 00 00 00
 (1709195377.725625)  vcan0  0000014A   [8]  00 F8 00 00 00 00 00 00
 (1709195377.726093)  vcan0  0000017C   [8]  00 00 00 00 00 00 04 C0
 (1709195377.726409)  vcan0  000001A3   [8]  00 00 00 00 02 00 00 00
 (1709195377.748265)  vcan0  0000014A   [8]  01 05 00 00 00 00 00 00
 (1709195377.748752)  vcan0  0000017C   [8]  6E 00 00 00 00 00 00 00
 (1709195377.749073)  vcan0  000001A3   [8]  00 00 00 00 02 00 00 00
 (1709195377.800402)  vcan0  0000014A   [8]  02 05 00 00 00 00 00 00
 (1709195377.800932)  vcan0  0000017C   [8]  C0 00 00 00 00 00 00 00
 (1709195377.801312)  vcan0  000001A3   [8]  00 00 00 00 02 00 00 00
 (1709195377.826911)  vcan0  0000014A   [8]  02 05 00 00 00 00 00 00
 (1709195377.827578)  vcan0  0000017C   [8]  C0 00 00 00 00 00 00 00
 (1709195377.828067)  vcan0  000001A3   [8]  00 00 00 00 02 00 00 00
 (1709195377.838909)  vcan0  0000014A   [8]  03 05 00 00 00 00 00 00
 (1709195377.839508)  vcan0  0000017C   [8]  C0 00 00 00 00 00 00 00
 (1709195377.839842)  vcan0  000001A3   [8]  00 00 00 00 02 00 00 00
 (1709195377.866908)  vcan0  0000014A   [8]  04 05 00 00 00 00 00 00
 (1709195377.867317)  vcan0  0000017C   [8]  C0 00 00 00 00 00 00 00
 (1709195377.867623)  vcan0  000001A3   [8]  00 00 00 00 02 00 00 00
 (1709195377.901500)  vcan0  0000014A   [8]  04 82 00 00 00 00 00 00
 (1709195377.902611)  vcan0  0000017C   [8]  C0 00 00 00 00 00 00 00
 (1709195377.903292)  vcan0  000001A3   [8]  00 00 00 00 02 00 00 00
 (1709195377.926109)  vcan0  0000014A   [8]  03 6C 00 00 00 00 00 00
 (1709195377.926516)  vcan0  0000017C   [8]  C0 00 00 00 00 00 00 00
 (1709195377.926877)  vcan0  000001A3   [8]  00 00 00 00 02 00 00 00
 (1709195377.963971)  vcan0  0000014A   [8]  02 79 00 00 00 00 00 00
 (1709195377.964584)  vcan0  0000017C   [8]  C0 00 00 00 00 00 00 00
 (1709195377.965128)  vcan0  000001A3   [8]  00 00 00 00 02 00 00 00
 (1709195377.998779)  vcan0  0000014A   [8]  01 D9 00 00 00 00 00 00
 (1709195377.999288)  vcan0  0000017C   [8]  C0 00 00 00 00 00 00 00
 (1709195377.999666)  vcan0  000001A3   [8]  00 00 00 00 02 00 00 00
 (1709195378.018863)  vcan0  0000014A   [8]  01 D9 00 00 00 00 00 00
 (1709195378.019491)  vcan0  0000017C   [8]  C0 00 00 00 00 00 00 00
 (1709195378.020036)  vcan0  000001A3   [8]  00 00 00 00 02 00 00 00
 (1709195378.049872)  vcan0  0000014A   [8]  01 86 00 00 00 00 00 00
 (1709195378.050371)  vcan0  0000017C   [8]  C0 00 00 00 00 00 00 00
 (1709195378.050875)  vcan0  000001A3   [8]  00 00 00 00 02 00 00 00
 (1709195378.075978)  vcan0  0000014A   [8]  01 84 00 00 00 00 00 00
 (1709195378.076482)  vcan0  0000017C   [8]  C0 00 00 00 00 00 00 00
 (1709195378.076960)  vcan0  000001A3   [8]  00 00 00 00 02 00 00 00
 (1709195378.100733)  vcan0  0000014A   [8]  01 63 00 00 00 00 00 00
 (1709195378.101176)  vcan0  0000017C   [8]  C0 00 00 00 00 00 00 00
 (1709195378.101523)  vcan0  000001A3   [8]  00 00 00 00 02 00 00 00
 (1709195378.162405)  vcan0  0000014A   [8]  01 3D 00 00 00 00 00 00
 (1709195378.163023)  vcan0  0000017C   [8]  00 00 00 00 00 00 02 40
 (1709195378.163592)  vcan0  000001A3   [8]  00 00 00 00 02 00 00 00
 (1709195378.193990)  vcan0  0000014A   [8]  01 33 00 00 00 00 00 00
 (1709195378.194546)  vcan0  0000017C   [8]  00 00 00 00 00 00 04 C0
 (1709195378.194875)  vcan0  000001A3   [8]  00 00 00 00 02 00 00 00
 (1709195378.251325)  vcan0  0000014A   [8]  00 EE 00 00 00 00 00 00
 (1709195378.251844)  vcan0  0000017C   [8]  00 00 00 00 00 00 04 C0
 (1709195378.252238)  vcan0  000001A3   [8]  00 00 00 00 02 00 00 00
 (1709195378.267166)  vcan0  0000014A   [8]  00 EE 00 00 00 00 00 00
 (1709195378.267781)  vcan0  0000017C   [8]  00 00 00 00 00 00 04 C0
 (1709195378.268840)  vcan0  000001A3   [8]  00 00 00 00 02 00 00 00
 (1709195378.316091)  vcan0  0000014A   [8]  01 23 00 00 00 00 00 00
 (1709195378.316937)  vcan0  0000017C   [8]  00 00 00 00 00 00 04 C0
 (1709195378.317341)  vcan0  000001A3   [8]  00 00 00 00 02 00 00 00
 (1709195378.354302)  vcan0  0000014A   [8]  01 37 00 00 00 00 00 00
 (1709195378.354788)  vcan0  0000017C   [8]  00 00 00 00 00 00 01 80
 (1709195378.355162)  vcan0  000001A3   [8]  00 00 00 00 02 00 00 00
 (1709195378.414181)  vcan0  0000014A   [8]  01 28 00 00 00 00 00 00
 (1709195378.414859)  vcan0  0000017C   [8]  90 00 00 00 00 00 00 00
 (1709195378.415379)  vcan0  000001A3   [8]  00 00 00 00 02 00 00 00
 (1709195378.439173)  vcan0  0000014A   [8]  00 FA 00 00 00 00 00 00
 (1709195378.439693)  vcan0  0000017C   [8]  C0 00 00 00 00 00 00 00
 (1709195378.440068)  vcan0  000001A3   [8]  00 00 00 00 02 00 00 00
 (1709195378.474839)  vcan0  0000014A   [8]  01 04 00 00 00 00 00 00
 (1709195378.475588)  vcan0  0000017C   [8]  C0 00 00 00 00 00 00 00
 (1709195378.476099)  vcan0  000001A3   [8]  00 00 00 00 02 00 00 00
 (1709195378.507152)  vcan0  0000014A   [8]  00 FB 00 00 00 00 00 00
 (1709195378.507784)  vcan0  0000017C   [8]  C0 00 00 00 00 00 00 00
 (1709195378.508130)  vcan0  000001A3   [8]  00 00 00 00 02 00 00 00
 (1709195378.535659)  vcan0  0000014A   [8]  01 0C 00 00 00 00 00 00
 (1709195378.536085)  vcan0  0000017C   [8]  C0 00 00 00 00 00 00 00
 (1709195378.537129)  vcan0  000001A3   [8]  00 00 00 00 02 00 00 00
 (1709195378.582813)  vcan0  0000014A   [8]  01 02 00 00 00 00 00 00
 (1709195378.584223)  vcan0  0000017C   [8]  C0 00 00 00 00 00 00 00
 (1709195378.585107)  vcan0  000001A3   [8]  00 00 00 00 02 00 00 00
 (1709195378.642169)  vcan0  0000014A   [8]  01 0D 00 00 00 00 00 00
 (1709195378.642828)  vcan0  0000017C   [8]  C0 00 00 00 00 00 00 00
 (1709195378.643232)  vcan0  000001A3   [8]  00 00 00 00 02 00 00 00
 (1709195378.662210)  vcan0  0000014A   [8]  00 FF 00 00 00 00 00 00
 (1709195378.663320)  vcan0  0000017C   [8]  C0 00 00 00 00 00 00 00
 (1709195378.664222)  vcan0  000001A3   [8]  00 00 00 00 02 00 00 00
 (1709195378.704077)  vcan0  0000014A   [8]  00 FF 00 00 00 00 00 00
 (1709195378.704908)  vcan0  0000017C   [8]  C0 00 00 00 00 00 00 00
 (1709195378.706905)  vcan0  000001A3   [8]  00 00 00 00 02 00 00 00
 (1709195378.756999)  vcan0  0000014A   [8]  01 04 00 00 00 00 00 00
 (1709195378.758302)  vcan0  0000017C   [8]  C0 00 00 00 00 00 00 00
 (1709195378.759167)  vcan0  000001A3   [8]  00 00 00 00 02 00 00 00
 (1709195378.818297)  vcan0  0000014A   [8]  00 FF 00 00 00 00 00 00
 (1709195378.818836)  vcan0  0000017C   [8]  97 00 00 00 00 00 00 00
 (1709195378.819360)  vcan0  000001A3   [8]  00 00 00 00 02 00 00 00
 (1709195378.911876)  vcan0  0000014A   [8]  FF FF 00 00 00 00 00 00
 (1709195378.912785)  vcan0  0000017C   [8]  00 00 00 00 00 00 04 C0
 (1709195378.913413)  vcan0  000001A3   [8]  00 00 00 00 02 00 00 00
 (1709195378.961585)  vcan0  0000014A   [8]  00 58 00 00 00 00 00 00
 (1709195378.962161)  vcan0  0000017C   [8]  00 00 00 00 00 00 04 C0
 (1709195378.962533)  vcan0  000001A3   [8]  00 00 00 00 02 00 00 00
 (1709195379.000781)  vcan0  0000014A   [8]  FF 58 00 00 00 00 00 00
 (1709195379.001533)  vcan0  0000017C   [8]  00 00 00 00 00 00 04 C0
 (1709195379.001898)  vcan0  000001A3   [8]  00 00 00 00 02 00 00 00
 (1709195379.083422)  vcan0  0000014A   [8]  00 53 00 00 00 00 00 00
 (1709195379.084071)  vcan0  0000017C   [8]  00 00 00 00 00 00 04 C0
 (1709195379.084529)  vcan0  000001A3   [8]  00 00 00 00 02 00 00 00
 (1709195379.121060)  vcan0  0000014A   [8]  01 53 00 00 00 00 00 00
 (1709195379.122268)  vcan0  0000017C   [8]  C0 00 00 00 00 00 00 00
 (1709195379.123619)  vcan0  000001A3   [8]  00 00 00 00 00 00 00 00
 (1709195379.149944)  vcan0  0000014A   [8]  01 53 00 00 00 00 00 00
 (1709195379.150370)  vcan0  0000017C   [8]  C0 00 00 00 00 00 00 00
 (1709195379.150688)  vcan0  000001A3   [8]  00 00 00 00 00 00 00 00
 (1709195379.209992)  vcan0  0000014A   [8]  00 7E 00 00 00 00 00 00
 (1709195379.210789)  vcan0  0000017C   [8]  C0 00 00 00 00 00 00 00
 (1709195379.211303)  vcan0  000001A3   [8]  00 00 00 00 01 00 00 00
 (1709195379.237323)  vcan0  0000014A   [8]  00 4E 00 00 00 00 00 00
 (1709195379.237962)  vcan0  0000017C   [8]  C0 00 00 00 00 00 00 00
 (1709195379.238512)  vcan0  000001A3   [8]  00 00 00 00 01 00 00 00
 (1709195379.269554)  vcan0  0000014A   [8]  00 4E 00 00 00 00 00 00
 (1709195379.270120)  vcan0  0000017C   [8]  C0 00 00 00 00 00 00 00
 (1709195379.270637)  vcan0  000001A3   [8]  00 00 00 00 01 00 00 00
 (1709195379.293887)  vcan0  0000014A   [8]  00 9A 00 00 00 00 00 00
 (1709195379.294381)  vcan0  0000017C   [8]  C0 00 00 00 00 00 00 00
 (1709195379.294697)  vcan0  000001A3   [8]  00 00 00 00 01 00 00 00
 (1709195379.320745)  vcan0  0000014A   [8]  00 B1 00 00 00 00 00 00
 (1709195379.321299)  vcan0  0000017C   [8]  C0 00 00 00 00 00 00 00
 (1709195379.321642)  vcan0  000001A3   [8]  00 00 00 00 01 00 00 00
 (1709195379.342892)  vcan0  0000014A   [8]  00 E8 00 00 00 00 00 00
 (1709195379.343312)  vcan0  0000017C   [8]  C0 00 00 00 00 00 00 00
 (1709195379.343626)  vcan0  000001A3   [8]  00 00 00 00 01 00 00 00
 (1709195379.377640)  vcan0  0000014A   [8]  00 F2 00 00 00 00 00 00
 (1709195379.378219)  vcan0  0000017C   [8]  C0 00 00 00 00 00 00 00
 (1709195379.378576)  vcan0  000001A3   [8]  00 00 00 00 01 00 00 00
 (1709195379.406129)  vcan0  0000014A   [8]  00 0C 00 00 00 00 00 00
 (1709195379.406612)  vcan0  0000017C   [8]  C0 00 00 00 00 00 00 00
 (1709195379.408264)  vcan0  000001A3   [8]  00 00 00 00 01 00 00 00
 (1709195379.428187)  vcan0  0000014A   [8]  00 0C 00 00 00 00 00 00
 (1709195379.429153)  vcan0  0000017C   [8]  C0 00 00 00 00 00 00 00
 (1709195379.429646)  vcan0  000001A3   [8]  00 00 00 00 01 00 00 00
 (1709195379.463282)  vcan0  0000014A   [8]  00 8E 00 00 00 00 00 00
 (1709195379.463721)  vcan0  0000017C   [8]  C0 00 00 00 00 00 00 00
 (1709195379.464301)  vcan0  000001A3   [8]  00 00 00 00 00 00 00 00
 (1709195379.499872)  vcan0  0000014A   [8]  01 08 00 00 00 00 00 00
 (1709195379.500779)  vcan0  0000017C   [8]  C0 00 00 00 00 00 00 00
 (1709195379.501358)  vcan0  000001A3   [8]  00 00 00 00 00 00 00 00
 (1709195379.527138)  vcan0  0000014A   [8]  01 08 00 00 00 00 00 00
 (1709195379.527555)  vcan0  0000017C   [8]  C0 00 00 00 00 00 00 00
 (1709195379.527862)  vcan0  000001A3   [8]  00 00 00 00 02 00 00 00
 (1709195379.552116)  vcan0  0000014A   [8]  01 1C 00 00 00 00 00 00
 (1709195379.552519)  vcan0  0000017C   [8]  C0 00 00 00 00 00 00 00
 (1709195379.552816)  vcan0  000001A3   [8]  00 00 00 00 02 00 00 00
 (1709195379.590810)  vcan0  0000014A   [8]  01 0E 00 00 00 00 00 00
 (1709195379.591214)  vcan0  0000017C   [8]  C0 00 00 00 00 00 00 00
 (1709195379.591504)  vcan0  000001A3   [8]  00 00 00 00 02 00 00 00
 (1709195379.633975)  vcan0  0000014A   [8]  00 88 00 00 00 00 00 00
 (1709195379.634495)  vcan0  0000017C   [8]  C0 00 00 00 00 00 00 00
 (1709195379.634926)  vcan0  000001A3   [8]  00 00 00 00 02 00 00 00
 (1709195379.665094)  vcan0  0000014A   [8]  00 1D 00 00 00 00 00 00
 (1709195379.665657)  vcan0  0000017C   [8]  00 00 00 00 00 00 04 C0
 (1709195379.666089)  vcan0  000001A3   [8]  00 00 00 00 02 00 00 00
 (1709195379.694222)  vcan0  0000014A   [8]  00 1D 00 00 00 00 00 00
 (1709195379.694741)  vcan0  0000017C   [8]  00 00 00 00 00 00 04 C0
 (1709195379.695077)  vcan0  000001A3   [8]  00 00 00 00 02 00 00 00
 (1709195379.732223)  vcan0  0000014A   [8]  01 18 00 00 00 00 00 00
 (1709195379.732773)  vcan0  0000017C   [8]  00 00 00 00 00 00 04 C0
 (1709195379.733167)  vcan0  000001A3   [8]  00 00 00 00 02 00 00 00
 (1709195379.764348)  vcan0  0000014A   [8]  01 61 00 00 00 00 00 00
 (1709195379.764758)  vcan0  0000017C   [8]  00 00 00 00 00 00 04 C0
 (1709195379.765074)  vcan0  000001A3   [8]  00 00 00 00 02 00 00 00
 (1709195379.781432)  vcan0  0000014A   [8]  01 61 00 00 00 00 00 00
 (1709195379.782106)  vcan0  0000017C   [8]  00 00 00 00 00 00 04 C0
 (1709195379.782547)  vcan0  000001A3   [8]  00 00 00 00 02 00 00 00
 (1709195379.842291)  vcan0  0000014A   [8]  00 B8 00 00 00 00 00 00
 (1709195379.842824)  vcan0  0000017C   [8]  00 00 00 00 00 00 04 C0
 (1709195379.843235)  vcan0  000001A3   [8]  00 00 00 00 02 00 00 00
 (1709195379.899264)  vcan0  0000014A   [8]  00 8E 00 00 00 00 00 00
 (1709195379.899846)  vcan0  0000017C   [8]  00 00 00 00 00 00 04 C0
 (1709195379.900244)  vcan0  000001A3   [8]  00 00 00 00 02 00 00 00
 (1709195379.925833)  vcan0  0000014A   [8]  00 BF 00 00 00 00 00 00
 (1709195379.926321)  vcan0  0000017C   [8]  C0 00 00 00 00 00 00 00
 (1709195379.926651)  vcan0  000001A3   [8]  00 00 00 00 02 00 00 00
 (1709195379.959614)  vcan0  0000014A   [8]  00 BF 00 00 00 00 00 00
 (1709195379.960067)  vcan0  0000017C   [8]  C0 00 00 00 00 00 00 00
 (1709195379.960397)  vcan0  000001A3   [8]  00 00 00 00 00 00 00 00
 (1709195379.986344)  vcan0  0000014A   [8]  00 BD 00 00 00 00 00 00
 (1709195379.986808)  vcan0  0000017C   [8]  C0 00 00 00 00 00 00 00
 (1709195379.987136)  vcan0  000001A3   [8]  00 00 00 00 00 00 00 00
 (1709195380.003204)  vcan0  0000014A   [8]  00 BD 00 00 00 00 00 00
 (1709195380.003844)  vcan0  0000017C   [8]  C0 00 00 00 00 00 00 00
 (1709195380.004271)  vcan0  000001A3   [8]  00 00 00 00 01 00 00 00
 (1709195380.043325)  vcan0  0000014A   [8]  01 12 00 00 00 00 00 00
 (1709195380.043818)  vcan0  0000017C   [8]  C0 00 00 00 00 00 00 00
 (1709195380.044179)  vcan0  000001A3   [8]  00 00 00 00 01 00 00 00
 (1709195380.076128)  vcan0  0000014A   [8]  01 38 00 00 00 00 00 00
 (1709195380.076683)  vcan0  0000017C   [8]  C0 00 00 00 00 00 00 00
 (1709195380.077038)  vcan0  000001A3   [8]  00 00 00 00 01 00 00 00
 (1709195380.090105)  vcan0  0000014A   [8]  01 38 00 00 00 00 00 00
 (1709195380.091052)  vcan0  0000017C   [8]  C0 00 00 00 00 00 00 00
 (1709195380.091678)  vcan0  000001A3   [8]  00 00 00 00 01 00 00 00
 (1709195380.119442)  vcan0  0000014A   [8]  01 30 00 00 00 00 00 00
 (1709195380.119888)  vcan0  0000017C   [8]  C0 00 00 00 00 00 00 00
 (1709195380.121207)  vcan0  000001A3   [8]  00 00 00 00 01 00 00 00
 (1709195380.157929)  vcan0  0000014A   [8]  01 01 00 00 00 00 00 00
 (1709195380.158449)  vcan0  0000017C   [8]  C0 00 00 00 00 00 00 00
 (1709195380.158777)  vcan0  000001A3   [8]  00 00 00 00 01 00 00 00
 (1709195380.187827)  vcan0  0000014A   [8]  00 F1 00 00 00 00 00 00
 (1709195380.189301)  vcan0  0000017C   [8]  C0 00 00 00 00 00 00 00
 (1709195380.189729)  vcan0  000001A3   [8]  00 00 00 00 01 00 00 00
 (1709195380.202949)  vcan0  0000014A   [8]  00 F1 00 00 00 00 00 00
 (1709195380.203386)  vcan0  0000017C   [8]  C0 00 00 00 00 00 00 00
 (1709195380.203791)  vcan0  000001A3   [8]  00 00 00 00 01 00 00 00
 (1709195380.243969)  vcan0  0000014A   [8]  00 F4 00 00 00 00 00 00
 (1709195380.244788)  vcan0  0000017C   [8]  C0 00 00 00 00 00 00 00
 (1709195380.245357)  vcan0  000001A3   [8]  00 00 00 00 01 00 00 00
 (1709195380.269467)  vcan0  0000014A   [8]  00 E9 00 00 00 00 00 00
 (1709195380.269969)  vcan0  0000017C   [8]  C0 00 00 00 00 00 00 00
 (1709195380.270279)  vcan0  000001A3   [8]  00 00 00 00 00 00 00 00
 (1709195380.299341)  vcan0  0000014A   [8]  00 E9 00 00 00 00 00 00
 (1709195380.299889)  vcan0  0000017C   [8]  C0 00 00 00 00 00 00 00
 (1709195380.300224)  vcan0  000001A3   [8]  00 00 00 00 00 00 00 00
 (1709195380.324751)  vcan0  0000014A   [8]  00 EC 00 00 00 00 00 00
 (1709195380.325200)  vcan0  0000017C   [8]  C0 00 00 00 00 00 00 00
 (1709195380.325522)  vcan0  000001A3   [8]  00 00 00 00 00 00 00 00
 (1709195380.382871)  vcan0  0000014A   [8]  00 F8 00 00 00 00 00 00
 (1709195380.383722)  vcan0  0000017C   [8]  C0 00 00 00 00 00 00 00
 (1709195380.384104)  vcan0  000001A3   [8]  00 00 00 00 02 00 00 00
 (1709195380.435539)  vcan0  0000014A   [8]  00 D4 00 00 00 00 00 00
 (1709195380.436040)  vcan0  0000017C   [8]  C0 00 00 00 00 00 00 00
 (1709195380.436414)  vcan0  000001A3   [8]  00 00 00 00 02 00 00 00
 (1709195380.484971)  vcan0  0000014A   [8]  01 03 00 00 00 00 00 00
 (1709195380.485463)  vcan0  0000017C   [8]  00 00 00 00 00 00 04 C0
 (1709195380.486001)  vcan0  000001A3   [8]  00 00 00 00 02 00 00 00
 (1709195380.511109)  vcan0  0000014A   [8]  00 EE 00 00 00 00 00 00
 (1709195380.511539)  vcan0  0000017C   [8]  00 00 00 00 00 00 04 C0
 (1709195380.511852)  vcan0  000001A3   [8]  00 00 00 00 02 00 00 00
 (1709195380.530697)  vcan0  0000014A   [8]  00 EE 00 00 00 00 00 00
 (1709195380.531153)  vcan0  0000017C   [8]  00 00 00 00 00 00 04 C0
 (1709195380.531467)  vcan0  000001A3   [8]  00 00 00 00 02 00 00 00
 (1709195380.567303)  vcan0  0000014A   [8]  01 03 00 00 00 00 00 00
 (1709195380.567716)  vcan0  0000017C   [8]  00 00 00 00 00 00 04 C0
 (1709195380.568079)  vcan0  000001A3   [8]  00 00 00 00 02 00 00 00
 (1709195380.611394)  vcan0  0000014A   [8]  01 0B 00 00 00 00 00 00
 (1709195380.611960)  vcan0  0000017C   [8]  00 00 00 00 00 00 04 C0
 (1709195380.612344)  vcan0  000001A3   [8]  00 00 00 00 02 00 00 00
 (1709195380.651607)  vcan0  0000014A   [8]  01 0B 00 00 00 00 00 00
 (1709195380.652361)  vcan0  0000017C   [8]  00 00 00 00 00 00 04 C0
 (1709195380.652854)  vcan0  000001A3   [8]  00 00 00 00 02 00 00 00
 (1709195380.672235)  vcan0  0000014A   [8]  00 F6 00 00 00 00 00 00
 (1709195380.673841)  vcan0  0000017C   [8]  00 00 00 00 00 00 04 C0
 (1709195380.674459)  vcan0  000001A3   [8]  00 00 00 00 02 00 00 00
 (1709195380.726099)  vcan0  0000014A   [8]  00 F1 00 00 00 00 00 00
 (1709195380.726581)  vcan0  0000017C   [8]  00 00 00 00 00 00 02 40
 (1709195380.726990)  vcan0  000001A3   [8]  00 00 00 00 02 00 00 00
 (1709195380.761967)  vcan0  0000014A   [8]  00 F1 00 00 00 00 00 00
 (1709195380.762384)  vcan0  0000017C   [8]  00 00 00 00 00 00 02 40
 (1709195380.762677)  vcan0  000001A3   [8]  00 00 00 00 00 00 00 00
 (1709195380.787316)  vcan0  0000014A   [8]  00 FD 00 00 00 00 00 00
 (1709195380.787818)  vcan0  0000017C   [8]  C0 00 00 00 00 00 00 00
 (1709195380.788302)  vcan0  000001A3   [8]  00 00 00 00 00 00 00 00
 (1709195380.810249)  vcan0  0000014A   [8]  00 FD 00 00 00 00 00 00
 (1709195380.810658)  vcan0  0000017C   [8]  C0 00 00 00 00 00 00 00
 (1709195380.810946)  vcan0  000001A3   [8]  00 00 00 00 01 00 00 00
 (1709195380.845079)  vcan0  0000014A   [8]  00 FB 00 00 00 00 00 00
 (1709195380.845578)  vcan0  0000017C   [8]  C0 00 00 00 00 00 00 00
 (1709195380.846013)  vcan0  000001A3   [8]  00 00 00 00 01 00 00 00
 (1709195380.871428)  vcan0  0000014A   [8]  00 FB 00 00 00 00 00 00
 (1709195380.872130)  vcan0  0000017C   [8]  C0 00 00 00 00 00 00 00
 (1709195380.872566)  vcan0  000001A3   [8]  00 00 00 00 01 00 00 00
 (1709195380.903959)  vcan0  0000014A   [8]  00 F9 00 00 00 00 00 00
 (1709195380.904743)  vcan0  0000017C   [8]  C0 00 00 00 00 00 00 00
 (1709195380.905242)  vcan0  000001A3   [8]  00 00 00 00 01 00 00 00
 (1709195380.930166)  vcan0  0000014A   [8]  00 FA 00 00 00 00 00 00
 (1709195380.930642)  vcan0  0000017C   [8]  C0 00 00 00 00 00 00 00
 (1709195380.931019)  vcan0  000001A3   [8]  00 00 00 00 01 00 00 00
 (1709195380.963508)  vcan0  0000014A   [8]  00 FB 00 00 00 00 00 00
 (1709195380.963967)  vcan0  0000017C   [8]  C0 00 00 00 00 00 00 00
 (1709195380.964274)  vcan0  000001A3   [8]  00 00 00 00 01 00 00 00
 (1709195380.985889)  vcan0  0000014A   [8]  00 FD 00 00 00 00 00 00
 (1709195380.986334)  vcan0  0000017C   [8]  C0 00 00 00 00 00 00 00
 (1709195380.986653)  vcan0  000001A3   [8]  00 00 00 00 01 00 00 00
 (1709195381.018421)  vcan0  0000014A   [8]  00 FF 00 00 00 00 00 00
 (1709195381.018920)  vcan0  0000017C   [8]  C0 00 00 00 00 00 00 00
 (1709195381.019321)  vcan0  000001A3   [8]  00 00 00 00 01 00 00 00
 (1709195381.041569)  vcan0  0000014A   [8]  00 FF 00 00 00 00 00 00
 (1709195381.042178)  vcan0  0000017C   [8]  C0 00 00 00 00 00 00 00
 (1709195381.042549)  vcan0  000001A3   [8]  00 00 00 00 01 00 00 00
 (1709195381.070866)  vcan0  0000014A   [8]  01 00 00 00 00 00 00 00
 (1709195381.071384)  vcan0  0000017C   [8]  C0 00 00 00 00 00 00 00
 (1709195381.071862)  vcan0  000001A3   [8]  00 00 00 00 01 00 00 00
 (1709195381.109532)  vcan0  0000014A   [8]  00 F9 00 00 00 00 00 00
 (1709195381.110285)  vcan0  0000017C   [8]  C0 00 00 00 00 00 00 00
 (1709195381.110682)  vcan0  000001A3   [8]  00 00 00 00 01 00 00 00
 (1709195381.163945)  vcan0  0000014A   [8]  00 F9 00 00 00 00 00 00
 (1709195381.164872)  vcan0  0000017C   [8]  C0 00 00 00 00 00 00 00
 (1709195381.165308)  vcan0  000001A3   [8]  00 00 00 00 00 00 00 00
 (1709195381.185039)  vcan0  0000014A   [8]  00 F9 00 00 00 00 00 00
 (1709195381.185452)  vcan0  0000017C   [8]  C0 00 00 00 00 00 00 00
 (1709195381.185870)  vcan0  000001A3   [8]  00 00 00 00 02 00 00 00
 (1709195381.223756)  vcan0  0000014A   [8]  00 FE 00 00 00 00 00 00
 (1709195381.224485)  vcan0  0000017C   [8]  C0 00 00 00 00 00 00 00
 (1709195381.225028)  vcan0  000001A3   [8]  00 00 00 00 02 00 00 00
 (1709195381.248932)  vcan0  0000014A   [8]  00 F5 00 00 00 00 00 00
 (1709195381.249614)  vcan0  0000017C   [8]  C0 00 00 00 00 00 00 00
 (1709195381.250178)  vcan0  000001A3   [8]  00 00 00 00 02 00 00 00
 (1709195381.305637)  vcan0  0000014A   [8]  00 FD 00 00 00 00 00 00
 (1709195381.306313)  vcan0  0000017C   [8]  AA 00 00 00 00 00 00 00
 (1709195381.307018)  vcan0  000001A3   [8]  00 00 00 00 02 00 00 00
 (1709195381.341558)  vcan0  0000014A   [8]  00 FD 00 00 00 00 00 00
 (1709195381.342199)  vcan0  0000017C   [8]  AA 00 00 00 00 00 00 00
 (1709195381.342585)  vcan0  000001A3   [8]  00 00 00 00 02 00 00 00
 (1709195381.361217)  vcan0  0000014A   [8]  01 01 00 00 00 00 00 00
 (1709195381.361996)  vcan0  0000017C   [8]  00 00 00 00 00 00 04 C0
 (1709195381.362443)  vcan0  000001A3   [8]  00 00 00 00 02 00 00 00
 (1709195381.391689)  vcan0  0000014A   [8]  01 03 00 00 00 00 00 00
 (1709195381.392255)  vcan0  0000017C   [8]  00 00 00 00 00 00 04 C0
 (1709195381.392667)  vcan0  000001A3   [8]  00 00 00 00 02 00 00 00
 (1709195381.418047)  vcan0  0000014A   [8]  01 03 00 00 00 00 00 00
 (1709195381.418458)  vcan0  0000017C   [8]  00 00 00 00 00 00 04 C0
 (1709195381.418790)  vcan0  000001A3   [8]  00 00 00 00 02 00 00 00
 (1709195381.467768)  vcan0  0000014A   [8]  01 03 00 00 00 00 00 00
 (1709195381.468738)  vcan0  0000017C   [8]  00 00 00 00 00 00 04 C0
 (1709195381.471563)  vcan0  000001A3   [8]  00 00 00 00 02 00 00 00
 (1709195381.490981)  vcan0  0000014A   [8]  00 FD 00 00 00 00 00 00
 (1709195381.491581)  vcan0  0000017C   [8]  00 00 00 00 00 00 04 C0
 (1709195381.496864)  vcan0  000001A3   [8]  00 00 00 00 02 00 00 00
 (1709195381.551041)  vcan0  0000014A   [8]  00 FC 00 00 00 00 00 00
 (1709195381.551460)  vcan0  0000017C   [8]  00 00 00 00 00 00 04 C0
 (1709195381.551782)  vcan0  000001A3   [8]  00 00 00 00 02 00 00 00
 (1709195381.586561)  vcan0  0000014A   [8]  00 FF 00 00 00 00 00 00
 (1709195381.587056)  vcan0  0000017C   [8]  00 00 00 00 00 00 04 C0
 (1709195381.587448)  vcan0  000001A3   [8]  00 00 00 00 02 00 00 00
 (1709195381.614302)  vcan0  0000014A   [8]  01 03 00 00 00 00 00 00
 (1709195381.615869)  vcan0  0000017C   [8]  42 00 00 00 00 00 00 00
 (1709195381.616977)  vcan0  000001A3   [8]  00 00 00 00 02 00 00 00
 (1709195381.649899)  vcan0  0000014A   [8]  01 03 00 00 00 00 00 00
 (1709195381.650656)  vcan0  0000017C   [8]  42 00 00 00 00 00 00 00
 (1709195381.651039)  vcan0  000001A3   [8]  00 00 00 00 02 00 00 00
 (1709195381.732171)  vcan0  0000014A   [8]  00 FE 00 00 00 00 00 00
 (1709195381.732947)  vcan0  0000017C   [8]  C0 00 00 00 00 00 00 00
 (1709195381.733474)  vcan0  000001A3   [8]  00 00 00 00 02 00 00 00
 (1709195381.813026)  vcan0  0000014A   [8]  00 FC 00 00 00 00 00 00
 (1709195381.814377)  vcan0  0000017C   [8]  C0 00 00 00 00 00 00 00
 (1709195381.815922)  vcan0  000001A3   [8]  00 00 00 00 02 00 00 00
 (1709195381.847726)  vcan0  0000014A   [8]  01 02 00 00 00 00 00 00
 (1709195381.849832)  vcan0  0000017C   [8]  C0 00 00 00 00 00 00 00
 (1709195381.850594)  vcan0  000001A3   [8]  00 00 00 00 02 00 00 00
 (1709195381.888706)  vcan0  0000014A   [8]  01 00 00 00 00 00 00 00
 (1709195381.889224)  vcan0  0000017C   [8]  C0 00 00 00 00 00 00 00
 (1709195381.889620)  vcan0  000001A3   [8]  00 00 00 00 02 00 00 00
 (1709195381.913018)  vcan0  0000014A   [8]  01 00 00 00 00 00 00 00
 (1709195381.913538)  vcan0  0000017C   [8]  19 00 00 00 00 00 00 00
 (1709195381.913991)  vcan0  000001A3   [8]  00 00 00 00 02 00 00 00
 (1709195381.946175)  vcan0  0000014A   [8]  01 00 00 00 00 00 00 00
 (1709195381.946774)  vcan0  0000017C   [8]  00 00 00 00 00 00 04 C0
 (1709195381.947162)  vcan0  000001A3   [8]  00 00 00 00 02 00 00 00
 (1709195382.001227)  vcan0  0000014A   [8]  00 FD 00 00 00 00 00 00
 (1709195382.001670)  vcan0  0000017C   [8]  00 00 00 00 00 00 04 C0
 (1709195382.002169)  vcan0  000001A3   [8]  00 00 00 00 02 00 00 00
 (1709195382.033157)  vcan0  0000014A   [8]  00 FF 00 00 00 00 00 00
 (1709195382.033773)  vcan0  0000017C   [8]  00 00 00 00 00 00 04 C0
 (1709195382.034177)  vcan0  000001A3   [8]  00 00 00 00 02 00 00 00
 (1709195382.074513)  vcan0  0000014A   [8]  00 FF 00 00 00 00 00 00
 (1709195382.074947)  vcan0  0000017C   [8]  00 00 00 00 00 00 04 C0
 (1709195382.075269)  vcan0  000001A3   [8]  00 00 00 00 02 00 00 00
 (1709195382.121454)  vcan0  0000014A   [8]  01 01 00 00 00 00 00 00
 (1709195382.122112)  vcan0  0000017C   [8]  00 00 00 00 00 00 03 C0
 (1709195382.122749)  vcan0  000001A3   [8]  00 00 00 00 02 00 00 00
 (1709195382.182042)  vcan0  0000014A   [8]  01 02 00 00 00 00 00 00
 (1709195382.182704)  vcan0  0000017C   [8]  54 00 00 00 00 00 00 00
 (1709195382.183215)  vcan0  000001A3   [8]  00 00 00 00 00 00 00 00
 (1709195382.218224)  vcan0  0000014A   [8]  00 FE 00 00 00 00 00 00
 (1709195382.218695)  vcan0  0000017C   [8]  C0 00 00 00 00 00 00 00
 (1709195382.219014)  vcan0  000001A3   [8]  00 00 00 00 00 00 00 00
 (1709195382.250702)  vcan0  0000014A   [8]  00 FF 00 00 00 00 00 00
 (1709195382.251287)  vcan0  0000017C   [8]  C0 00 00 00 00 00 00 00
 (1709195382.251729)  vcan0  000001A3   [8]  00 00 00 00 01 00 00 00
 (1709195382.306455)  vcan0  0000014A   [8]  01 00 00 00 00 00 00 00
 (1709195382.307115)  vcan0  0000017C   [8]  C0 00 00 00 00 00 00 00
 (1709195382.307482)  vcan0  000001A3   [8]  00 00 00 00 01 00 00 00
 (1709195382.332199)  vcan0  0000014A   [8]  01 02 00 00 00 00 00 00
 (1709195382.333248)  vcan0  0000017C   [8]  C0 00 00 00 00 00 00 00
 (1709195382.334172)  vcan0  000001A3   [8]  00 00 00 00 01 00 00 00
 (1709195382.396147)  vcan0  0000014A   [8]  01 01 00 00 00 00 00 00
 (1709195382.396627)  vcan0  0000017C   [8]  C0 00 00 00 00 00 00 00
 (1709195382.397352)  vcan0  000001A3   [8]  00 00 00 00 01 00 00 00
 (1709195382.431515)  vcan0  0000014A   [8]  00 FF 00 00 00 00 00 00
 (1709195382.432004)  vcan0  0000017C   [8]  C0 00 00 00 00 00 00 00
 (1709195382.432632)  vcan0  000001A3   [8]  00 00 00 00 01 00 00 00
 (1709195382.459102)  vcan0  0000014A   [8]  00 FF 00 00 00 00 00 00
 (1709195382.459707)  vcan0  0000017C   [8]  C0 00 00 00 00 00 00 00
 (1709195382.460128)  vcan0  000001A3   [8]  00 00 00 00 01 00 00 00
 (1709195382.488449)  vcan0  0000014A   [8]  01 00 00 00 00 00 00 00
 (1709195382.489193)  vcan0  0000017C   [8]  C0 00 00 00 00 00 00 00
 (1709195382.489670)  vcan0  000001A3   [8]  00 00 00 00 01 00 00 00
 (1709195382.517309)  vcan0  0000014A   [8]  01 00 00 00 00 00 00 00
 (1709195382.517818)  vcan0  0000017C   [8]  C0 00 00 00 00 00 00 00
 (1709195382.518137)  vcan0  000001A3   [8]  00 00 00 00 01 00 00 00
 (1709195382.551692)  vcan0  0000014A   [8]  01 00 00 00 00 00 00 00
 (1709195382.552166)  vcan0  0000017C   [8]  C0 00 00 00 00 00 00 00
 (1709195382.552622)  vcan0  000001A3   [8]  00 00 00 00 00 00 00 00
 (1709195382.589318)  vcan0  0000014A   [8]  01 00 00 00 00 00 00 00
 (1709195382.590052)  vcan0  0000017C   [8]  C0 00 00 00 00 00 00 00
 (1709195382.590462)  vcan0  000001A3   [8]  00 00 00 00 00 00 00 00
 (1709195382.631026)  vcan0  0000014A   [8]  01 00 00 00 00 00 00 00
 (1709195382.631532)  vcan0  0000017C   [8]  C0 00 00 00 00 00 00 00
 (1709195382.631896)  vcan0  000001A3   [8]  00 00 00 00 02 00 00 00
 (1709195382.640666)  vcan0  0000014A   [8]  01 00 00 00 00 00 00 00
 (1709195382.641328)  vcan0  0000017C   [8]  C0 00 00 00 00 00 00 00
 (1709195382.641869)  vcan0  000001A3   [8]  00 00 00 00 02 00 00 00
 (1709195382.663843)  vcan0  0000014A   [8]  01 00 00 00 00 00 00 00
 (1709195382.664364)  vcan0  0000017C   [8]  C0 00 00 00 00 00 00 00
 (1709195382.664743)  vcan0  000001A3   [8]  00 00 00 00 02 00 00 00
 (1709195382.750494)  vcan0  0000014A   [8]  02 00 00 00 00 00 00 00
 (1709195382.751424)  vcan0  0000017C   [8]  00 00 00 00 00 00 04 C0
 (1709195382.752163)  vcan0  000001A3   [8]  00 00 00 00 02 00 00 00
 (1709195382.780538)  vcan0  0000014A   [8]  01 1B 00 00 00 00 00 00
 (1709195382.781637)  vcan0  0000017C   [8]  00 00 00 00 00 00 04 C0
 (1709195382.782749)  vcan0  000001A3   [8]  00 00 00 00 02 00 00 00
 (1709195382.821977)  vcan0  0000014A   [8]  02 1B 00 00 00 00 00 00
 (1709195382.822694)  vcan0  0000017C   [8]  00 00 00 00 00 00 04 C0
 (1709195382.823052)  vcan0  000001A3   [8]  00 00 00 00 02 00 00 00
 (1709195382.851928)  vcan0  0000014A   [8]  01 8A 00 00 00 00 00 00
 (1709195382.852632)  vcan0  0000017C   [8]  00 00 00 00 00 00 04 C0
 (1709195382.853208)  vcan0  000001A3   [8]  00 00 00 00 02 00 00 00
 (1709195382.883367)  vcan0  0000014A   [8]  01 62 00 00 00 00 00 00
 (1709195382.883894)  vcan0  0000017C   [8]  00 00 00 00 00 00 04 C0
 (1709195382.884251)  vcan0  000001A3   [8]  00 00 00 00 02 00 00 00
 (1709195382.909042)  vcan0  0000014A   [8]  01 2A 00 00 00 00 00 00
 (1709195382.909615)  vcan0  0000017C   [8]  00 00 00 00 00 00 04 C0
 (1709195382.910078)  vcan0  000001A3   [8]  00 00 00 00 02 00 00 00
 (1709195382.939564)  vcan0  0000014A   [8]  01 2A 00 00 00 00 00 00
 (1709195382.940187)  vcan0  0000017C   [8]  00 00 00 00 00 00 04 C0
 (1709195382.940788)  vcan0  000001A3   [8]  00 00 00 00 02 00 00 00
 (1709195382.971574)  vcan0  0000014A   [8]  02 15 00 00 00 00 00 00
 (1709195382.972201)  vcan0  0000017C   [8]  2F 00 00 00 00 00 00 00
 (1709195382.972522)  vcan0  000001A3   [8]  00 00 00 00 00 00 00 00
 (1709195383.035918)  vcan0  0000014A   [8]  02 80 00 00 00 00 00 00
 (1709195383.036407)  vcan0  0000017C   [8]  9C 00 00 00 00 00 00 00
 (1709195383.037009)  vcan0  000001A3   [8]  00 00 00 00 01 00 00 00
 (1709195383.080779)  vcan0  0000014A   [8]  01 D2 00 00 00 00 00 00
 (1709195383.081288)  vcan0  0000017C   [8]  C0 00 00 00 00 00 00 00
 (1709195383.081761)  vcan0  000001A3   [8]  00 00 00 00 01 00 00 00
 (1709195383.140582)  vcan0  0000014A   [8]  00 DC 00 00 00 00 00 00
 (1709195383.141763)  vcan0  0000017C   [8]  C0 00 00 00 00 00 00 00
 (1709195383.142231)  vcan0  000001A3   [8]  00 00 00 00 01 00 00 00
 (1709195383.160380)  vcan0  0000014A   [8]  00 DC 00 00 00 00 00 00
 (1709195383.161249)  vcan0  0000017C   [8]  C0 00 00 00 00 00 00 00
 (1709195383.161789)  vcan0  000001A3   [8]  00 00 00 00 01 00 00 00
 (1709195383.207045)  vcan0  0000014A   [8]  01 73 00 00 00 00 00 00
 (1709195383.207728)  vcan0  0000017C   [8]  C0 00 00 00 00 00 00 00
 (1709195383.208222)  vcan0  000001A3   [8]  00 00 00 00 01 00 00 00
 (1709195383.223626)  vcan0  0000014A   [8]  02 73 00 00 00 00 00 00
 (1709195383.224090)  vcan0  0000017C   [8]  C0 00 00 00 00 00 00 00
 (1709195383.224491)  vcan0  000001A3   [8]  00 00 00 00 01 00 00 00
 (1709195383.253445)  vcan0  0000014A   [8]  02 73 00 00 00 00 00 00
 (1709195383.254088)  vcan0  0000017C   [8]  C0 00 00 00 00 00 00 00
 (1709195383.254557)  vcan0  000001A3   [8]  00 00 00 00 01 00 00 00
 (1709195383.285474)  vcan0  0000014A   [8]  03 3A 00 00 00 00 00 00
 (1709195383.285967)  vcan0  0000017C   [8]  C0 00 00 00 00 00 00 00
 (1709195383.286288)  vcan0  000001A3   [8]  00 00 00 00 01 00 00 00
 (1709195383.320005)  vcan0  0000014A   [8]  02 D7 00 00 00 00 00 00
 (1709195383.320501)  vcan0  0000017C   [8]  C0 00 00 00 00 00 00 00
 (1709195383.320959)  vcan0  000001A3   [8]  00 00 00 00 01 00 00 00
 (1709195383.349929)  vcan0  0000014A   [8]  02 41 00 00 00 00 00 00
 (1709195383.350847)  vcan0  0000017C   [8]  C0 00 00 00 00 00 00 00
 (1709195383.351411)  vcan0  000001A3   [8]  00 00 00 00 01 00 00 00
 (1709195383.378502)  vcan0  0000014A   [8]  03 41 00 00 00 00 00 00
 (1709195383.379049)  vcan0  0000017C   [8]  C0 00 00 00 00 00 00 00
 (1709195383.379538)  vcan0  000001A3   [8]  00 00 00 00 01 00 00 00
 (1709195383.425531)  vcan0  0000014A   [8]  03 8B 00 00 00 00 00 00
 (1709195383.426293)  vcan0  0000017C   [8]  C0 00 00 00 00 00 00 00
 (1709195383.426738)  vcan0  000001A3   [8]  00 00 00 00 00 00 00 00
 (1709195383.447322)  vcan0  0000014A   [8]  03 41 00 00 00 00 00 00
 (1709195383.447881)  vcan0  0000017C   [8]  C0 00 00 00 00 00 00 00
 (1709195383.448281)  vcan0  000001A3   [8]  00 00 00 00 00 00 00 00
 (1709195383.474382)  vcan0  0000014A   [8]  03 41 00 00 00 00 00 00
 (1709195383.474850)  vcan0  0000017C   [8]  C0 00 00 00 00 00 00 00
 (1709195383.475171)  vcan0  000001A3   [8]  00 00 00 00 02 00 00 00
 (1709195383.503216)  vcan0  0000014A   [8]  03 A5 00 00 00 00 00 00
 (1709195383.503684)  vcan0  0000017C   [8]  C0 00 00 00 00 00 00 00
 (1709195383.504081)  vcan0  000001A3   [8]  00 00 00 00 02 00 00 00
 (1709195383.539697)  vcan0  0000014A   [8]  03 A5 00 00 00 00 00 00
 (1709195383.540188)  vcan0  0000017C   [8]  C0 00 00 00 00 00 00 00
 (1709195383.540553)  vcan0  000001A3   [8]  00 00 00 00 02 00 00 00
 (1709195383.624634)  vcan0  0000014A   [8]  02 E8 00 00 00 00 00 00
 (1709195383.625249)  vcan0  0000017C   [8]  00 00 00 00 00 00 04 C0
 (1709195383.625838)  vcan0  000001A3   [8]  00 00 00 00 02 00 00 00
 (1709195383.681192)  vcan0  0000014A   [8]  03 E8 00 00 00 00 00 00
 (1709195383.681831)  vcan0  0000017C   [8]  00 00 00 00 00 00 04 C0
 (1709195383.682443)  vcan0  000001A3   [8]  00 00 00 00 02 00 00 00
 (1709195383.710568)  vcan0  0000014A   [8]  02 E8 00 00 00 00 00 00
 (1709195383.711068)  vcan0  0000017C   [8]  00 00 00 00 00 00 04 C0
 (1709195383.711417)  vcan0  000001A3   [8]  00 00 00 00 02 00 00 00
 (1709195383.735676)  vcan0  0000014A   [8]  03 E8 00 00 00 00 00 00
 (1709195383.736163)  vcan0  0000017C   [8]  00 00 00 00 00 00 04 C0
 (1709195383.736492)  vcan0  000001A3   [8]  00 00 00 00 02 00 00 00
 (1709195383.771465)  vcan0  0000014A   [8]  03 E8 00 00 00 00 00 00
 (1709195383.772352)  vcan0  0000017C   [8]  00 00 00 00 00 00 04 C0
 (1709195383.772977)  vcan0  000001A3   [8]  00 00 00 00 02 00 00 00
 (1709195383.843617)  vcan0  0000014A   [8]  03 80 00 00 00 00 00 00
 (1709195383.844067)  vcan0  0000017C   [8]  0B 00 00 00 00 00 00 00
 (1709195383.844394)  vcan0  000001A3   [8]  00 00 00 00 02 00 00 00
 (1709195383.894025)  vcan0  0000014A   [8]  02 80 00 00 00 00 00 00
 (1709195383.894521)  vcan0  0000017C   [8]  C0 00 00 00 00 00 00 00
 (1709195383.894839)  vcan0  000001A3   [8]  00 00 00 00 02 00 00 00
 (1709195383.929191)  vcan0  0000014A   [8]  03 80 00 00 00 00 00 00
 (1709195383.929669)  vcan0  0000017C   [8]  C0 00 00 00 00 00 00 00
 (1709195383.930037)  vcan0  000001A3   [8]  00 00 00 00 02 00 00 00
 (1709195383.956058)  vcan0  0000014A   [8]  03 80 00 00 00 00 00 00
 (1709195383.956906)  vcan0  0000017C   [8]  C0 00 00 00 00 00 00 00
 (1709195383.957290)  vcan0  000001A3   [8]  00 00 00 00 02 00 00 00
 (1709195384.020931)  vcan0  0000014A   [8]  03 33 00 00 00 00 00 00
 (1709195384.021509)  vcan0  0000017C   [8]  C0 00 00 00 00 00 00 00
 (1709195384.022023)  vcan0  000001A3   [8]  00 00 00 00 02 00 00 00
 (1709195384.042481)  vcan0  0000014A   [8]  02 33 00 00 00 00 00 00
 (1709195384.042888)  vcan0  0000017C   [8]  C0 00 00 00 00 00 00 00
 (1709195384.043193)  vcan0  000001A3   [8]  00 00 00 00 02 00 00 00
 (1709195384.083252)  vcan0  0000014A   [8]  03 33 00 00 00 00 00 00
 (1709195384.083705)  vcan0  0000017C   [8]  C0 00 00 00 00 00 00 00
 (1709195384.084034)  vcan0  000001A3   [8]  00 00 00 00 02 00 00 00
 (1709195384.115735)  vcan0  0000014A   [8]  04 33 00 00 00 00 00 00
 (1709195384.116147)  vcan0  0000017C   [8]  C0 00 00 00 00 00 00 00
 (1709195384.116435)  vcan0  000001A3   [8]  00 00 00 00 02 00 00 00
 (1709195384.139752)  vcan0  0000014A   [8]  04 1D 00 00 00 00 00 00
 (1709195384.140203)  vcan0  0000017C   [8]  C0 00 00 00 00 00 00 00
 (1709195384.140548)  vcan0  000001A3   [8]  00 00 00 00 02 00 00 00
 (1709195384.191776)  vcan0  0000014A   [8]  04 1D 00 00 00 00 00 00
 (1709195384.192818)  vcan0  0000017C   [8]  C0 00 00 00 00 00 00 00
 (1709195384.193506)  vcan0  000001A3   [8]  00 00 00 00 02 00 00 00
 (1709195384.251541)  vcan0  0000014A   [8]  04 5D 00 00 00 00 00 00
 (1709195384.253111)  vcan0  0000017C   [8]  C0 00 00 00 00 00 00 00
 (1709195384.255246)  vcan0  000001A3   [8]  00 00 00 00 02 00 00 00
 (1709195384.269283)  vcan0  0000014A   [8]  04 03 00 00 00 00 00 00
 (1709195384.269829)  vcan0  0000017C   [8]  C0 00 00 00 00 00 00 00
 (1709195384.270197)  vcan0  000001A3   [8]  00 00 00 00 02 00 00 00
 (1709195384.315760)  vcan0  0000014A   [8]  04 03 00 00 00 00 00 00
 (1709195384.316603)  vcan0  0000017C   [8]  C0 00 00 00 00 00 00 00
 (1709195384.317736)  vcan0  000001A3   [8]  00 00 00 00 02 00 00 00
 (1709195384.339750)  vcan0  0000014A   [8]  03 9B 00 00 00 00 00 00
 (1709195384.340347)  vcan0  0000017C   [8]  00 00 00 00 00 00 03 00
 (1709195384.340714)  vcan0  000001A3   [8]  00 00 00 00 02 00 00 00
 (1709195384.404370)  vcan0  0000014A   [8]  02 E1 00 00 00 00 00 00
 (1709195384.406147)  vcan0  0000017C   [8]  00 00 00 00 00 00 04 C0
 (1709195384.406700)  vcan0  000001A3   [8]  00 00 00 00 02 00 00 00
 (1709195384.434772)  vcan0  0000014A   [8]  03 E1 00 00 00 00 00 00
 (1709195384.435391)  vcan0  0000017C   [8]  00 00 00 00 00 00 04 C0
 (1709195384.435721)  vcan0  000001A3   [8]  00 00 00 00 02 00 00 00
 (1709195384.502715)  vcan0  0000014A   [8]  03 0F 00 00 00 00 00 00
 (1709195384.503152)  vcan0  0000017C   [8]  00 00 00 00 00 00 04 C0
 (1709195384.503466)  vcan0  000001A3   [8]  00 00 00 00 02 00 00 00
 (1709195384.538724)  vcan0  0000014A   [8]  02 0F 00 00 00 00 00 00
 (1709195384.539308)  vcan0  0000017C   [8]  00 00 00 00 00 00 04 C0
 (1709195384.539645)  vcan0  000001A3   [8]  00 00 00 00 02 00 00 00
 (1709195384.569326)  vcan0  0000014A   [8]  01 32 00 00 00 00 00 00
 (1709195384.570258)  vcan0  0000017C   [8]  11 00 00 00 00 00 00 00
 (1709195384.570862)  vcan0  000001A3   [8]  00 00 00 00 02 00 00 00
 (1709195384.606746)  vcan0  0000014A   [8]  02 32 00 00 00 00 00 00
 (1709195384.607420)  vcan0  0000017C   [8]  C0 00 00 00 00 00 00 00
 (1709195384.607803)  vcan0  000001A3   [8]  00 00 00 00 02 00 00 00
 (1709195384.637811)  vcan0  0000014A   [8]  02 98 00 00 00 00 00 00
 (1709195384.638506)  vcan0  0000017C   [8]  C0 00 00 00 00 00 00 00
 (1709195384.640397)  vcan0  000001A3   [8]  00 00 00 00 02 00 00 00
 (1709195384.731712)  vcan0  0000014A   [8]  02 A3 00 00 00 00 00 00
 (1709195384.732708)  vcan0  0000017C   [8]  C0 00 00 00 00 00 00 00
 (1709195384.735888)  vcan0  000001A3   [8]  00 00 00 00 02 00 00 00
 (1709195384.790158)  vcan0  0000014A   [8]  01 A3 00 00 00 00 00 00
 (1709195384.790651)  vcan0  0000017C   [8]  C0 00 00 00 00 00 00 00
 (1709195384.791069)  vcan0  000001A3   [8]  00 00 00 00 02 00 00 00
 (1709195384.813575)  vcan0  0000014A   [8]  02 A3 00 00 00 00 00 00
 (1709195384.814163)  vcan0  0000017C   [8]  C0 00 00 00 00 00 00 00
 (1709195384.814491)  vcan0  000001A3   [8]  00 00 00 00 02 00 00 00
 (1709195384.875980)  vcan0  0000014A   [8]  01 D1 00 00 00 00 00 00
 (1709195384.876490)  vcan0  0000017C   [8]  1F 00 00 00 00 00 00 00
 (1709195384.876902)  vcan0  000001A3   [8]  00 00 00 00 02 00 00 00
 (1709195384.934948)  vcan0  0000014A   [8]  01 D1 00 00 00 00 00 00
 (1709195384.935566)  vcan0  0000017C   [8]  1F 00 00 00 00 00 00 00
 (1709195384.935902)  vcan0  000001A3   [8]  00 00 00 00 02 00 00 00
 (1709195384.948893)  vcan0  0000014A   [8]  01 3D 00 00 00 00 00 00
 (1709195384.949367)  vcan0  0000017C   [8]  00 00 00 00 00 00 04 C0
 (1709195384.949797)  vcan0  000001A3   [8]  00 00 00 00 02 00 00 00
 (1709195384.991588)  vcan0  0000014A   [8]  01 3D 00 00 00 00 00 00
 (1709195384.992012)  vcan0  0000017C   [8]  00 00 00 00 00 00 04 C0
 (1709195384.992323)  vcan0  000001A3   [8]  00 00 00 00 02 00 00 00
 (1709195385.018901)  vcan0  0000014A   [8]  01 CC 00 00 00 00 00 00
 (1709195385.019333)  vcan0  0000017C   [8]  00 00 00 00 00 00 04 C0
 (1709195385.019656)  vcan0  000001A3   [8]  00 00 00 00 02 00 00 00
 (1709195385.060066)  vcan0  0000014A   [8]  01 D9 00 00 00 00 00 00
 (1709195385.060827)  vcan0  0000017C   [8]  00 00 00 00 00 00 04 C0
 (1709195385.061344)  vcan0  000001A3   [8]  00 00 00 00 02 00 00 00
 (1709195385.098580)  vcan0  0000014A   [8]  01 BF 00 00 00 00 00 00
 (1709195385.099001)  vcan0  0000017C   [8]  72 00 00 00 00 00 00 00
 (1709195385.099353)  vcan0  000001A3   [8]  00 00 00 00 02 00 00 00
 (1709195385.132488)  vcan0  0000014A   [8]  01 7A 00 00 00 00 00 00
 (1709195385.133370)  vcan0  0000017C   [8]  C0 00 00 00 00 00 00 00
 (1709195385.133940)  vcan0  000001A3   [8]  00 00 00 00 02 00 00 00
 (1709195385.171152)  vcan0  0000014A   [8]  01 7A 00 00 00 00 00 00
 (1709195385.171636)  vcan0  0000017C   [8]  C0 00 00 00 00 00 00 00
 (1709195385.171990)  vcan0  000001A3   [8]  00 00 00 00 02 00 00 00
 (1709195385.194807)  vcan0  0000014A   [8]  01 56 00 00 00 00 00 00
 (1709195385.195263)  vcan0  0000017C   [8]  C0 00 00 00 00 00 00 00
 (1709195385.195569)  vcan0  000001A3   [8]  00 00 00 00 02 00 00 00
 (1709195385.234306)  vcan0  0000014A   [8]  02 3F 00 00 00 00 00 00
 (1709195385.234805)  vcan0  0000017C   [8]  C0 00 00 00 00 00 00 00
 (1709195385.235174)  vcan0  000001A3   [8]  00 00 00 00 02 00 00 00
 (1709195385.303468)  vcan0  0000014A   [8]  01 D7 00 00 00 00 00 00
 (1709195385.304007)  vcan0  0000017C   [8]  C0 00 00 00 00 00 00 00
 (1709195385.304379)  vcan0  000001A3   [8]  00 00 00 00 02 00 00 00
 (1709195385.335207)  vcan0  0000014A   [8]  01 AA 00 00 00 00 00 00
 (1709195385.335632)  vcan0  0000017C   [8]  C0 00 00 00 00 00 00 00
 (1709195385.336236)  vcan0  000001A3   [8]  00 00 00 00 02 00 00 00
 (1709195385.372693)  vcan0  0000014A   [8]  00 E1 00 00 00 00 00 00
 (1709195385.373363)  vcan0  0000017C   [8]  C0 00 00 00 00 00 00 00
 (1709195385.373897)  vcan0  000001A3   [8]  00 00 00 00 02 00 00 00
 (1709195385.421208)  vcan0  0000014A   [8]  00 E1 00 00 00 00 00 00
 (1709195385.421768)  vcan0  0000017C   [8]  C0 00 00 00 00 00 00 00
 (1709195385.422143)  vcan0  000001A3   [8]  00 00 00 00 02 00 00 00
 (1709195385.444866)  vcan0  0000014A   [8]  01 2F 00 00 00 00 00 00
 (1709195385.445353)  vcan0  0000017C   [8]  3A 00 00 00 00 00 00 00
 (1709195385.445795)  vcan0  000001A3   [8]  00 00 00 00 02 00 00 00
 (1709195385.502942)  vcan0  0000014A   [8]  02 2F 00 00 00 00 00 00
 (1709195385.503406)  vcan0  0000017C   [8]  00 00 00 00 00 00 04 C0
 (1709195385.503790)  vcan0  000001A3   [8]  00 00 00 00 02 00 00 00
 (1709195385.571030)  vcan0  0000014A   [8]  01 B9 00 00 00 00 00 00
 (1709195385.571848)  vcan0  0000017C   [8]  00 00 00 00 00 00 04 C0
 (1709195385.572420)  vcan0  000001A3   [8]  00 00 00 00 02 00 00 00
 (1709195385.630279)  vcan0  0000014A   [8]  00 D4 00 00 00 00 00 00
 (1709195385.630706)  vcan0  0000017C   [8]  00 00 00 00 00 00 04 C0
 (1709195385.631034)  vcan0  000001A3   [8]  00 00 00 00 02 00 00 00
 (1709195385.647227)  vcan0  0000014A   [8]  00 C7 00 00 00 00 00 00
 (1709195385.647871)  vcan0  0000017C   [8]  00 00 00 00 00 00 04 C0
 (1709195385.648290)  vcan0  000001A3   [8]  00 00 00 00 02 00 00 00
 (1709195385.711775)  vcan0  0000014A   [8]  01 BE 00 00 00 00 00 00
 (1709195385.712257)  vcan0  0000017C   [8]  00 00 00 00 00 00 04 00
 (1709195385.712906)  vcan0  000001A3   [8]  00 00 00 00 02 00 00 00
 (1709195385.781325)  vcan0  0000014A   [8]  01 A1 00 00 00 00 00 00
 (1709195385.782090)  vcan0  0000017C   [8]  C0 00 00 00 00 00 00 00
 (1709195385.782530)  vcan0  000001A3   [8]  00 00 00 00 00 00 00 00
 (1709195385.801558)  vcan0  0000014A   [8]  01 7A 00 00 00 00 00 00
 (1709195385.802318)  vcan0  0000017C   [8]  C0 00 00 00 00 00 00 00
 (1709195385.802832)  vcan0  000001A3   [8]  00 00 00 00 01 00 00 00
 (1709195385.863711)  vcan0  0000014A   [8]  00 D1 00 00 00 00 00 00
 (1709195385.864136)  vcan0  0000017C   [8]  C0 00 00 00 00 00 00 00
 (1709195385.864448)  vcan0  000001A3   [8]  00 00 00 00 01 00 00 00
 (1709195385.896849)  vcan0  0000014A   [8]  00 DE 00 00 00 00 00 00
 (1709195385.897380)  vcan0  0000017C   [8]  C0 00 00 00 00 00 00 00
 (1709195385.897794)  vcan0  000001A3   [8]  00 00 00 00 01 00 00 00
 (1709195385.938742)  vcan0  0000014A   [8]  00 E6 00 00 00 00 00 00
 (1709195385.939492)  vcan0  0000017C   [8]  C0 00 00 00 00 00 00 00
 (1709195385.940086)  vcan0  000001A3   [8]  00 00 00 00 01 00 00 00
 (1709195385.964080)  vcan0  0000014A   [8]  01 E6 00 00 00 00 00 00
 (1709195385.964722)  vcan0  0000017C   [8]  C0 00 00 00 00 00 00 00
 (1709195385.965116)  vcan0  000001A3   [8]  00 00 00 00 01 00 00 00
 (1709195386.008019)  vcan0  0000014A   [8]  01 F9 00 00 00 00 00 00
 (1709195386.008474)  vcan0  0000017C   [8]  C0 00 00 00 00 00 00 00
 (1709195386.008829)  vcan0  000001A3   [8]  00 00 00 00 01 00 00 00
 (1709195386.035106)  vcan0  0000014A   [8]  01 E2 00 00 00 00 00 00
 (1709195386.035806)  vcan0  0000017C   [8]  C0 00 00 00 00 00 00 00
 (1709195386.036162)  vcan0  000001A3   [8]  00 00 00 00 01 00 00 00
 (1709195386.091297)  vcan0  0000014A   [8]  01 8C 00 00 00 00 00 00
 (1709195386.091753)  vcan0  0000017C   [8]  C0 00 00 00 00 00 00 00
 (1709195386.092176)  vcan0  000001A3   [8]  00 00 00 00 01 00 00 00
 (1709195386.113163)  vcan0  0000014A   [8]  01 63 00 00 00 00 00 00
 (1709195386.113688)  vcan0  0000017C   [8]  C0 00 00 00 00 00 00 00
 (1709195386.114225)  vcan0  000001A3   [8]  00 00 00 00 01 00 00 00
 (1709195386.130558)  vcan0  0000014A   [8]  01 63 00 00 00 00 00 00
 (1709195386.130984)  vcan0  0000017C   [8]  C0 00 00 00 00 00 00 00
 (1709195386.131357)  vcan0  000001A3   [8]  00 00 00 00 01 00 00 00
 (1709195386.182795)  vcan0  0000014A   [8]  01 3C 00 00 00 00 00 00
 (1709195386.183212)  vcan0  0000017C   [8]  C0 00 00 00 00 00 00 00
 (1709195386.183627)  vcan0  000001A3   [8]  00 00 00 00 00 00 00 00
 (1709195386.217568)  vcan0  0000014A   [8]  02 A4 00 00 00 00 00 00
 (1709195386.218252)  vcan0  0000017C   [8]  C0 00 00 00 00 00 00 00
 (1709195386.218641)  vcan0  000001A3   [8]  00 00 00 00 00 00 00 00
 (1709195386.253194)  vcan0  0000014A   [8]  02 A4 00 00 00 00 00 00
 (1709195386.253680)  vcan0  0000017C   [8]  C0 00 00 00 00 00 00 00
 (1709195386.254065)  vcan0  000001A3   [8]  00 00 00 00 02 00 00 00
 (1709195386.282828)  vcan0  0000014A   [8]  02 8A 00 00 00 00 00 00
 (1709195386.283347)  vcan0  0000017C   [8]  C0 00 00 00 00 00 00 00
 (1709195386.283744)  vcan0  000001A3   [8]  00 00 00 00 02 00 00 00
 (1709195386.312701)  vcan0  0000014A   [8]  01 F3 00 00 00 00 00 00
 (1709195386.313677)  vcan0  0000017C   [8]  C0 00 00 00 00 00 00 00
 (1709195386.314097)  vcan0  000001A3   [8]  00 00 00 00 02 00 00 00
 (1709195386.350129)  vcan0  0000014A   [8]  02 F3 00 00 00 00 00 00
 (1709195386.350611)  vcan0  0000017C   [8]  46 00 00 00 00 00 00 00
 (1709195386.350933)  vcan0  000001A3   [8]  00 00 00 00 02 00 00 00
 (1709195386.384782)  vcan0  0000014A   [8]  03 25 00 00 00 00 00 00
 (1709195386.385290)  vcan0  0000017C   [8]  00 00 00 00 00 00 04 C0
 (1709195386.385665)  vcan0  000001A3   [8]  00 00 00 00 02 00 00 00
 (1709195386.418308)  vcan0  0000014A   [8]  03 25 00 00 00 00 00 00
 (1709195386.418934)  vcan0  0000017C   [8]  00 00 00 00 00 00 04 C0
 (1709195386.419590)  vcan0  000001A3   [8]  00 00 00 00 02 00 00 00
 (1709195386.451319)  vcan0  0000014A   [8]  04 26 00 00 00 00 00 00
 (1709195386.451831)  vcan0  0000017C   [8]  00 00 00 00 00 00 04 C0
 (1709195386.452184)  vcan0  000001A3   [8]  00 00 00 00 02 00 00 00
 (1709195386.494597)  vcan0  0000014A   [8]  04 26 00 00 00 00 00 00
 (1709195386.495268)  vcan0  0000017C   [8]  00 00 00 00 00 00 04 C0
 (1709195386.495714)  vcan0  000001A3   [8]  00 00 00 00 02 00 00 00
 (1709195386.523829)  vcan0  0000014A   [8]  03 0B 00 00 00 00 00 00
 (1709195386.524393)  vcan0  0000017C   [8]  00 00 00 00 00 00 04 C0
 (1709195386.524926)  vcan0  000001A3   [8]  00 00 00 00 02 00 00 00
 (1709195386.594444)  vcan0  0000014A   [8]  02 2D 00 00 00 00 00 00
 (1709195386.594979)  vcan0  0000017C   [8]  00 00 00 00 00 00 04 C0
 (1709195386.595441)  vcan0  000001A3   [8]  00 00 00 00 02 00 00 00
 (1709195386.618840)  vcan0  0000014A   [8]  03 2D 00 00 00 00 00 00
 (1709195386.619275)  vcan0  0000017C   [8]  31 00 00 00 00 00 00 00
 (1709195386.619659)  vcan0  000001A3   [8]  00 00 00 00 00 00 00 00
 (1709195386.650756)  vcan0  0000014A   [8]  03 75 00 00 00 00 00 00
 (1709195386.651218)  vcan0  0000017C   [8]  C0 00 00 00 00 00 00 00
 (1709195386.651519)  vcan0  000001A3   [8]  00 00 00 00 00 00 00 00
 (1709195386.686218)  vcan0  0000014A   [8]  03 2C 00 00 00 00 00 00
 (1709195386.686650)  vcan0  0000017C   [8]  C0 00 00 00 00 00 00 00
 (1709195386.687023)  vcan0  000001A3   [8]  00 00 00 00 01 00 00 00
 (1709195386.732280)  vcan0  0000014A   [8]  02 A0 00 00 00 00 00 00
 (1709195386.733736)  vcan0  0000017C   [8]  C0 00 00 00 00 00 00 00
 (1709195386.738044)  vcan0  000001A3   [8]  00 00 00 00 01 00 00 00
 (1709195386.756715)  vcan0  0000014A   [8]  02 1B 00 00 00 00 00 00
 (1709195386.757317)  vcan0  0000017C   [8]  C0 00 00 00 00 00 00 00
 (1709195386.757895)  vcan0  000001A3   [8]  00 00 00 00 01 00 00 00
 (1709195386.802195)  vcan0  0000014A   [8]  02 1B 00 00 00 00 00 00
 (1709195386.803384)  vcan0  0000017C   [8]  C0 00 00 00 00 00 00 00
 (1709195386.804643)  vcan0  000001A3   [8]  00 00 00 00 01 00 00 00
 (1709195386.826899)  vcan0  0000014A   [8]  02 DC 00 00 00 00 00 00
 (1709195386.827563)  vcan0  0000017C   [8]  C0 00 00 00 00 00 00 00
 (1709195386.828150)  vcan0  000001A3   [8]  00 00 00 00 01 00 00 00
 (1709195386.857567)  vcan0  0000014A   [8]  02 DC 00 00 00 00 00 00
 (1709195386.858787)  vcan0  0000017C   [8]  C0 00 00 00 00 00 00 00
 (1709195386.860326)  vcan0  000001A3   [8]  00 00 00 00 01 00 00 00
 (1709195386.890023)  vcan0  0000014A   [8]  03 FF 00 00 00 00 00 00
 (1709195386.890721)  vcan0  0000017C   [8]  C0 00 00 00 00 00 00 00
 (1709195386.891178)  vcan0  000001A3   [8]  00 00 00 00 01 00 00 00
 (1709195386.926534)  vcan0  0000014A   [8]  03 FF 00 00 00 00 00 00
 (1709195386.927099)  vcan0  0000017C   [8]  C0 00 00 00 00 00 00 00
 (1709195386.927432)  vcan0  000001A3   [8]  00 00 00 00 01 00 00 00
 (1709195386.956460)  vcan0  0000014A   [8]  03 B8 00 00 00 00 00 00
 (1709195386.957226)  vcan0  0000017C   [8]  C0 00 00 00 00 00 00 00
 (1709195386.957561)  vcan0  000001A3   [8]  00 00 00 00 01 00 00 00
 (1709195386.989827)  vcan0  0000014A   [8]  03 30 00 00 00 00 00 00
 (1709195386.990458)  vcan0  0000017C   [8]  C0 00 00 00 00 00 00 00
 (1709195386.990852)  vcan0  000001A3   [8]  00 00 00 00 01 00 00 00
 (1709195387.016521)  vcan0  0000014A   [8]  03 8E 00 00 00 00 00 00
 (1709195387.016952)  vcan0  0000017C   [8]  C0 00 00 00 00 00 00 00
 (1709195387.017279)  vcan0  000001A3   [8]  00 00 00 00 00 00 00 00
 (1709195387.054566)  vcan0  0000014A   [8]  04 6A 00 00 00 00 00 00
 (1709195387.055024)  vcan0  0000017C   [8]  C0 00 00 00 00 00 00 00
 (1709195387.055376)  vcan0  000001A3   [8]  00 00 00 00 00 00 00 00
 (1709195387.082928)  vcan0  0000014A   [8]  04 6A 00 00 00 00 00 00
 (1709195387.083373)  vcan0  0000017C   [8]  C0 00 00 00 00 00 00 00
 (1709195387.083705)  vcan0  000001A3   [8]  00 00 00 00 02 00 00 00
 (1709195387.118794)  vcan0  0000014A   [8]  03 74 00 00 00 00 00 00
 (1709195387.119265)  vcan0  0000017C   [8]  C0 00 00 00 00 00 00 00
 (1709195387.119592)  vcan0  000001A3   [8]  00 00 00 00 02 00 00 00
 (1709195387.155971)  vcan0  0000014A   [8]  04 74 00 00 00 00 00 00
 (1709195387.156453)  vcan0  0000017C   [8]  C0 00 00 00 00 00 00 00
 (1709195387.156891)  vcan0  000001A3   [8]  00 00 00 00 02 00 00 00
 (1709195387.190955)  vcan0  0000014A   [8]  04 B5 00 00 00 00 00 00
 (1709195387.191418)  vcan0  0000017C   [8]  C0 00 00 00 00 00 00 00
 (1709195387.191732)  vcan0  000001A3   [8]  00 00 00 00 02 00 00 00
 (1709195387.227398)  vcan0  0000014A   [8]  04 16 00 00 00 00 00 00
 (1709195387.227974)  vcan0  0000017C   [8]  C0 00 00 00 00 00 00 00
 (1709195387.228419)  vcan0  000001A3   [8]  00 00 00 00 02 00 00 00
 (1709195387.261771)  vcan0  0000014A   [8]  05 16 00 00 00 00 00 00
 (1709195387.262358)  vcan0  0000017C   [8]  00 00 00 00 00 00 01 80
 (1709195387.262685)  vcan0  000001A3   [8]  00 00 00 00 02 00 00 00
 (1709195387.294194)  vcan0  0000014A   [8]  05 16 00 00 00 00 00 00
 (1709195387.294737)  vcan0  0000017C   [8]  00 00 00 00 00 00 01 80
 (1709195387.295149)  vcan0  000001A3   [8]  00 00 00 00 02 00 00 00
 (1709195387.322397)  vcan0  0000014A   [8]  05 04 00 00 00 00 00 00
 (1709195387.322946)  vcan0  0000017C   [8]  00 00 00 00 00 00 04 C0
 (1709195387.323268)  vcan0  000001A3   [8]  00 00 00 00 02 00 00 00
 (1709195387.348120)  vcan0  0000014A   [8]  04 43 00 00 00 00 00 00
 (1709195387.348551)  vcan0  0000017C   [8]  00 00 00 00 00 00 04 C0
 (1709195387.348893)  vcan0  000001A3   [8]  00 00 00 00 02 00 00 00
 (1709195387.401152)  vcan0  0000014A   [8]  06 43 00 00 00 00 00 00
 (1709195387.401625)  vcan0  0000017C   [8]  00 00 00 00 00 00 04 C0
 (1709195387.401996)  vcan0  000001A3   [8]  00 00 00 00 02 00 00 00
 (1709195387.422517)  vcan0  0000014A   [8]  05 B0 00 00 00 00 00 00
 (1709195387.423014)  vcan0  0000017C   [8]  00 00 00 00 00 00 04 C0
 (1709195387.423374)  vcan0  000001A3   [8]  00 00 00 00 02 00 00 00
 (1709195387.460396)  vcan0  0000014A   [8]  05 B0 00 00 00 00 00 00
 (1709195387.460873)  vcan0  0000017C   [8]  00 00 00 00 00 00 04 C0
 (1709195387.461381)  vcan0  000001A3   [8]  00 00 00 00 02 00 00 00
 (1709195387.490578)  vcan0  0000014A   [8]  03 FF 00 00 00 00 00 00
 (1709195387.490960)  vcan0  0000017C   [8]  C0 00 00 00 00 00 00 00
 (1709195387.491235)  vcan0  000001A3   [8]  00 00 00 00 02 00 00 00
 (1709195387.531933)  vcan0  0000014A   [8]  03 FF 00 00 00 00 00 00
 (1709195387.532759)  vcan0  0000017C   [8]  C0 00 00 00 00 00 00 00
 (1709195387.533144)  vcan0  000001A3   [8]  00 00 00 00 02 00 00 00
 (1709195387.551680)  vcan0  0000014A   [8]  02 13 00 00 00 00 00 00
 (1709195387.552269)  vcan0  0000017C   [8]  C0 00 00 00 00 00 00 00
 (1709195387.552617)  vcan0  000001A3   [8]  00 00 00 00 02 00 00 00
 (1709195387.596527)  vcan0  0000014A   [8]  01 97 00 00 00 00 00 00
 (1709195387.597204)  vcan0  0000017C   [8]  C0 00 00 00 00 00 00 00
 (1709195387.597810)  vcan0  000001A3   [8]  00 00 00 00 02 00 00 00
 (1709195387.631128)  vcan0  0000014A   [8]  01 42 00 00 00 00 00 00
 (1709195387.631757)  vcan0  0000017C   [8]  C0 00 00 00 00 00 00 00
 (1709195387.632158)  vcan0  000001A3   [8]  00 00 00 00 02 00 00 00
 (1709195387.662087)  vcan0  0000014A   [8]  01 78 00 00 00 00 00 00
 (1709195387.662523)  vcan0  0000017C   [8]  C0 00 00 00 00 00 00 00
 (1709195387.662818)  vcan0  000001A3   [8]  00 00 00 00 02 00 00 00
 (1709195387.701868)  vcan0  0000014A   [8]  02 78 00 00 00 00 00 00
 (1709195387.702348)  vcan0  0000017C   [8]  C0 00 00 00 00 00 00 00
 (1709195387.702686)  vcan0  000001A3   [8]  00 00 00 00 02 00 00 00
 (1709195387.734994)  vcan0  0000014A   [8]  03 6B 00 00 00 00 00 00
 (1709195387.735426)  vcan0  0000017C   [8]  C0 00 00 00 00 00 00 00
 (1709195387.735740)  vcan0  000001A3   [8]  00 00 00 00 02 00 00 00
 (1709195387.765186)  vcan0  0000014A   [8]  03 2E 00 00 00 00 00 00
 (1709195387.765736)  vcan0  0000017C   [8]  C0 00 00 00 00 00 00 00
 (1709195387.766062)  vcan0  000001A3   [8]  00 00 00 00 02 00 00 00
 (1709195387.811501)  vcan0  0000014A   [8]  02 9F 00 00 00 00 00 00
 (1709195387.812277)  vcan0  0000017C   [8]  C0 00 00 00 00 00 00 00
 (1709195387.812764)  vcan0  000001A3   [8]  00 00 00 00 02 00 00 00
 (1709195387.835749)  vcan0  0000014A   [8]  02 9F 00 00 00 00 00 00
 (1709195387.836280)  vcan0  0000017C   [8]  C0 00 00 00 00 00 00 00
 (1709195387.836668)  vcan0  000001A3   [8]  00 00 00 00 02 00 00 00
 (1709195387.871030)  vcan0  0000014A   [8]  02 E5 00 00 00 00 00 00
 (1709195387.871557)  vcan0  0000017C   [8]  C0 00 00 00 00 00 00 00
 (1709195387.872011)  vcan0  000001A3   [8]  00 00 00 00 02 00 00 00
 (1709195387.921874)  vcan0  0000014A   [8]  02 51 00 00 00 00 00 00
 (1709195387.922470)  vcan0  0000017C   [8]  59 00 00 00 00 00 00 00
 (1709195387.922858)  vcan0  000001A3   [8]  00 00 00 00 02 00 00 00
 (1709195387.950591)  vcan0  0000014A   [8]  01 E1 00 00 00 00 00 00
 (1709195387.951413)  vcan0  0000017C   [8]  00 00 00 00 00 00 04 C0
 (1709195387.951971)  vcan0  000001A3   [8]  00 00 00 00 02 00 00 00
 (1709195388.017521)  vcan0  0000014A   [8]  01 7E 00 00 00 00 00 00
 (1709195388.018030)  vcan0  0000017C   [8]  00 00 00 00 00 00 04 C0
 (1709195388.018512)  vcan0  000001A3   [8]  00 00 00 00 02 00 00 00
 (1709195388.057624)  vcan0  0000014A   [8]  01 7E 00 00 00 00 00 00
 (1709195388.058141)  vcan0  0000017C   [8]  00 00 00 00 00 00 04 C0
 (1709195388.058447)  vcan0  000001A3   [8]  00 00 00 00 02 00 00 00
 (1709195388.085657)  vcan0  0000014A   [8]  02 0D 00 00 00 00 00 00
 (1709195388.086115)  vcan0  0000017C   [8]  00 00 00 00 00 00 04 C0
 (1709195388.086398)  vcan0  000001A3   [8]  00 00 00 00 02 00 00 00
 (1709195388.181011)  vcan0  0000014A   [8]  01 FA 00 00 00 00 00 00
 (1709195388.181709)  vcan0  0000017C   [8]  00 00 00 00 00 00 04 C0
 (1709195388.182199)  vcan0  000001A3   [8]  00 00 00 00 02 00 00 00
 (1709195388.241947)  vcan0  0000014A   [8]  01 35 00 00 00 00 00 00
 (1709195388.242359)  vcan0  0000017C   [8]  C0 00 00 00 00 00 00 00
 (1709195388.242659)  vcan0  000001A3   [8]  00 00 00 00 02 00 00 00
 (1709195388.268473)  vcan0  0000014A   [8]  02 35 00 00 00 00 00 00
 (1709195388.269037)  vcan0  0000017C   [8]  C0 00 00 00 00 00 00 00
 (1709195388.269494)  vcan0  000001A3   [8]  00 00 00 00 02 00 00 00
 (1709195388.300994)  vcan0  0000014A   [8]  02 35 00 00 00 00 00 00
 (1709195388.301668)  vcan0  0000017C   [8]  C0 00 00 00 00 00 00 00
 (1709195388.302104)  vcan0  000001A3   [8]  00 00 00 00 02 00 00 00
 (1709195388.363465)  vcan0  0000014A   [8]  01 BF 00 00 00 00 00 00
 (1709195388.363940)  vcan0  0000017C   [8]  C0 00 00 00 00 00 00 00
 (1709195388.364713)  vcan0  000001A3   [8]  00 00 00 00 02 00 00 00
 (1709195388.390820)  vcan0  0000014A   [8]  01 69 00 00 00 00 00 00
 (1709195388.391253)  vcan0  0000017C   [8]  C0 00 00 00 00 00 00 00
 (1709195388.391537)  vcan0  000001A3   [8]  00 00 00 00 02 00 00 00
 (1709195388.444540)  vcan0  0000014A   [8]  00 BA 00 00 00 00 00 00
 (1709195388.445967)  vcan0  0000017C   [8]  C0 00 00 00 00 00 00 00
 (1709195388.446448)  vcan0  000001A3   [8]  00 00 00 00 02 00 00 00
 (1709195388.502540)  vcan0  0000014A   [8]  01 BA 00 00 00 00 00 00
 (1709195388.503143)  vcan0  0000017C   [8]  C0 00 00 00 00 00 00 00
 (1709195388.503617)  vcan0  000001A3   [8]  00 00 00 00 02 00 00 00
 (1709195388.540849)  vcan0  0000014A   [8]  01 BA 00 00 00 00 00 00
 (1709195388.541495)  vcan0  0000017C   [8]  C0 00 00 00 00 00 00 00
 (1709195388.541997)  vcan0  000001A3   [8]  00 00 00 00 02 00 00 00
 (1709195388.586619)  vcan0  0000014A   [8]  01 59 00 00 00 00 00 00
 (1709195388.587322)  vcan0  0000017C   [8]  C0 00 00 00 00 00 00 00
 (1709195388.587679)  vcan0  000001A3   [8]  00 00 00 00 02 00 00 00
 (1709195388.657465)  vcan0  0000014A   [8]  01 95 00 00 00 00 00 00
 (1709195388.658019)  vcan0  0000017C   [8]  00 00 00 00 00 00 04 C0
 (1709195388.658397)  vcan0  000001A3   [8]  00 00 00 00 02 00 00 00
 (1709195388.688120)  vcan0  0000014A   [8]  01 40 00 00 00 00 00 00
 (1709195388.690021)  vcan0  0000017C   [8]  00 00 00 00 00 00 04 C0
 (1709195388.690486)  vcan0  000001A3   [8]  00 00 00 00 02 00 00 00
 (1709195388.713883)  vcan0  0000014A   [8]  01 40 00 00 00 00 00 00
 (1709195388.714471)  vcan0  0000017C   [8]  00 00 00 00 00 00 04 C0
 (1709195388.714808)  vcan0  000001A3   [8]  00 00 00 00 02 00 00 00
 (1709195388.748309)  vcan0  0000014A   [8]  01 20 00 00 00 00 00 00
 (1709195388.748810)  vcan0  0000017C   [8]  00 00 00 00 00 00 04 C0
 (1709195388.749110)  vcan0  000001A3   [8]  00 00 00 00 02 00 00 00
 (1709195388.882048)  vcan0  0000014A   [8]  00 A6 00 00 00 00 00 00
 (1709195388.882695)  vcan0  0000017C   [8]  72 00 00 00 00 00 00 00
 (1709195388.883181)  vcan0  000001A3   [8]  00 00 00 00 02 00 00 00
 (1709195388.919735)  vcan0  0000014A   [8]  00 A6 00 00 00 00 00 00
 (1709195388.920255)  vcan0  0000017C   [8]  72 00 00 00 00 00 00 00
 (1709195388.920723)  vcan0  000001A3   [8]  00 00 00 00 02 00 00 00
 (1709195388.964752)  vcan0  0000014A   [8]  00 A2 00 00 00 00 00 00
 (1709195388.965369)  vcan0  0000017C   [8]  C0 00 00 00 00 00 00 00
 (1709195388.966423)  vcan0  000001A3   [8]  00 00 00 00 02 00 00 00
 (1709195388.988677)  vcan0  0000014A   [8]  01 6C 00 00 00 00 00 00
 (1709195388.989375)  vcan0  0000017C   [8]  C0 00 00 00 00 00 00 00
 (1709195388.989808)  vcan0  000001A3   [8]  00 00 00 00 02 00 00 00
 (1709195389.024268)  vcan0  0000014A   [8]  01 2F 00 00 00 00 00 00
 (1709195389.024761)  vcan0  0000017C   [8]  C0 00 00 00 00 00 00 00
 (1709195389.025081)  vcan0  000001A3   [8]  00 00 00 00 02 00 00 00
 (1709195389.058884)  vcan0  0000014A   [8]  01 24 00 00 00 00 00 00
 (1709195389.059513)  vcan0  0000017C   [8]  C0 00 00 00 00 00 00 00
 (1709195389.060066)  vcan0  000001A3   [8]  00 00 00 00 02 00 00 00
 (1709195389.095842)  vcan0  0000014A   [8]  01 24 00 00 00 00 00 00
 (1709195389.096642)  vcan0  0000017C   [8]  C0 00 00 00 00 00 00 00
 (1709195389.097015)  vcan0  000001A3   [8]  00 00 00 00 02 00 00 00
 (1709195389.131664)  vcan0  0000014A   [8]  00 F8 00 00 00 00 00 00
 (1709195389.132086)  vcan0  0000017C   [8]  C0 00 00 00 00 00 00 00
 (1709195389.132429)  vcan0  000001A3   [8]  00 00 00 00 02 00 00 00
 (1709195389.170431)  vcan0  0000014A   [8]  00 F8 00 00 00 00 00 00
 (1709195389.170836)  vcan0  0000017C   [8]  C0 00 00 00 00 00 00 00
 (1709195389.171188)  vcan0  000001A3   [8]  00 00 00 00 02 00 00 00
 (1709195389.199617)  vcan0  0000014A   [8]  01 5A 00 00 00 00 00 00
 (1709195389.200199)  vcan0  0000017C   [8]  C0 00 00 00 00 00 00 00
 (1709195389.200614)  vcan0  000001A3   [8]  00 00 00 00 02 00 00 00
 (1709195389.260828)  vcan0  0000014A   [8]  01 14 00 00 00 00 00 00
 (1709195389.261383)  vcan0  0000017C   [8]  8F 00 00 00 00 00 00 00
 (1709195389.261761)  vcan0  000001A3   [8]  00 00 00 00 02 00 00 00
 (1709195389.305517)  vcan0  0000014A   [8]  01 14 00 00 00 00 00 00
 (1709195389.306204)  vcan0  0000017C   [8]  8F 00 00 00 00 00 00 00
 (1709195389.306543)  vcan0  000001A3   [8]  00 00 00 00 02 00 00 00
 (1709195389.317013)  vcan0  0000014A   [8]  00 C1 00 00 00 00 00 00
 (1709195389.317472)  vcan0  0000017C   [8]  00 00 00 00 00 00 04 C0
 (1709195389.317901)  vcan0  000001A3   [8]  00 00 00 00 02 00 00 00
 (1709195389.368226)  vcan0  0000014A   [8]  01 1E 00 00 00 00 00 00
 (1709195389.368634)  vcan0  0000017C   [8]  00 00 00 00 00 00 04 C0
 (1709195389.368930)  vcan0  000001A3   [8]  00 00 00 00 02 00 00 00
 (1709195389.402087)  vcan0  0000014A   [8]  01 06 00 00 00 00 00 00
 (1709195389.402491)  vcan0  0000017C   [8]  00 00 00 00 00 00 04 C0
 (1709195389.402792)  vcan0  000001A3   [8]  00 00 00 00 02 00 00 00
 (1709195389.432037)  vcan0  0000014A   [8]  00 FA 00 00 00 00 00 00
 (1709195389.432743)  vcan0  0000017C   [8]  00 00 00 00 00 00 04 C0
 (1709195389.433166)  vcan0  000001A3   [8]  00 00 00 00 02 00 00 00
 (1709195389.465547)  vcan0  0000014A   [8]  00 FE 00 00 00 00 00 00
 (1709195389.466061)  vcan0  0000017C   [8]  00 00 00 00 00 00 04 C0
 (1709195389.466403)  vcan0  000001A3   [8]  00 00 00 00 02 00 00 00
 (1709195389.504847)  vcan0  0000014A   [8]  01 32 00 00 00 00 00 00
 (1709195389.505373)  vcan0  0000017C   [8]  00 00 00 00 00 00 04 C0
 (1709195389.505774)  vcan0  000001A3   [8]  00 00 00 00 02 00 00 00
 (1709195389.543134)  vcan0  0000014A   [8]  01 32 00 00 00 00 00 00
 (1709195389.543657)  vcan0  0000017C   [8]  00 00 00 00 00 00 04 C0
 (1709195389.543974)  vcan0  000001A3   [8]  00 00 00 00 02 00 00 00
 (1709195389.608249)  vcan0  0000014A   [8]  00 FE 00 00 00 00 00 00
 (1709195389.608937)  vcan0  0000017C   [8]  00 00 00 00 00 00 03 00
 (1709195389.614070)  vcan0  000001A3   [8]  00 00 00 00 02 00 00 00
 (1709195389.641861)  vcan0  0000014A   [8]  00 DA 00 00 00 00 00 00
 (1709195389.642285)  vcan0  0000017C   [8]  C0 00 00 00 00 00 00 00
 (1709195389.642961)  vcan0  000001A3   [8]  00 00 00 00 00 00 00 00
 (1709195389.680951)  vcan0  0000014A   [8]  00 FA 00 00 00 00 00 00
 (1709195389.681392)  vcan0  0000017C   [8]  C0 00 00 00 00 00 00 00
 (1709195389.681836)  vcan0  000001A3   [8]  00 00 00 00 00 00 00 00
 (1709195389.708839)  vcan0  0000014A   [8]  00 F9 00 00 00 00 00 00
 (1709195389.709371)  vcan0  0000017C   [8]  C0 00 00 00 00 00 00 00
 (1709195389.709784)  vcan0  000001A3   [8]  00 00 00 00 00 00 00 00
 (1709195389.746805)  vcan0  0000014A   [8]  01 3F 00 00 00 00 00 00
 (1709195389.770067)  vcan0  0000017C   [8]  C0 00 00 00 00 00 00 00
 (1709195389.770700)  vcan0  000001A3   [8]  00 00 00 00 01 00 00 00
 (1709195389.781800)  vcan0  0000014A   [8]  01 15 00 00 00 00 00 00
 (1709195389.782254)  vcan0  0000017C   [8]  C0 00 00 00 00 00 00 00
 (1709195389.782671)  vcan0  000001A3   [8]  00 00 00 00 01 00 00 00
 (1709195389.813068)  vcan0  0000014A   [8]  01 15 00 00 00 00 00 00
 (1709195389.813519)  vcan0  0000017C   [8]  C0 00 00 00 00 00 00 00
 (1709195389.813941)  vcan0  000001A3   [8]  00 00 00 00 01 00 00 00
 (1709195389.840345)  vcan0  0000014A   [8]  00 EA 00 00 00 00 00 00
 (1709195389.841237)  vcan0  0000017C   [8]  C0 00 00 00 00 00 00 00
 (1709195389.841740)  vcan0  000001A3   [8]  00 00 00 00 01 00 00 00
 (1709195389.879618)  vcan0  0000014A   [8]  00 EA 00 00 00 00 00 00
 (1709195389.880094)  vcan0  0000017C   [8]  C0 00 00 00 00 00 00 00
 (1709195389.880457)  vcan0  000001A3   [8]  00 00 00 00 01 00 00 00
 (1709195389.911500)  vcan0  0000014A   [8]  00 F0 00 00 00 00 00 00
 (1709195389.911898)  vcan0  0000017C   [8]  C0 00 00 00 00 00 00 00
 (1709195389.912211)  vcan0  000001A3   [8]  00 00 00 00 01 00 00 00
 (1709195389.984243)  vcan0  0000014A   [8]  00 FB 00 00 00 00 00 00
 (1709195389.984699)  vcan0  0000017C   [8]  C0 00 00 00 00 00 00 00
 (1709195389.985080)  vcan0  000001A3   [8]  00 00 00 00 01 00 00 00
 (1709195390.024705)  vcan0  0000014A   [8]  01 01 00 00 00 00 00 00
 (1709195390.025181)  vcan0  0000017C   [8]  C0 00 00 00 00 00 00 00
 (1709195390.025558)  vcan0  000001A3   [8]  00 00 00 00 01 00 00 00
 (1709195390.060185)  vcan0  0000014A   [8]  01 30 00 00 00 00 00 00
 (1709195390.069497)  vcan0  0000017C   [8]  C0 00 00 00 00 00 00 00
 (1709195390.069951)  vcan0  000001A3   [8]  00 00 00 00 00 00 00 00
 (1709195390.089435)  vcan0  0000014A   [8]  01 0E 00 00 00 00 00 00
 (1709195390.090052)  vcan0  0000017C   [8]  C0 00 00 00 00 00 00 00
 (1709195390.090361)  vcan0  000001A3   [8]  00 00 00 00 00 00 00 00
 (1709195390.131121)  vcan0  0000014A   [8]  01 0E 00 00 00 00 00 00
 (1709195390.132034)  vcan0  0000017C   [8]  C0 00 00 00 00 00 00 00
 (1709195390.132424)  vcan0  000001A3   [8]  00 00 00 00 02 00 00 00
 (1709195390.155116)  vcan0  0000014A   [8]  00 FA 00 00 00 00 00 00
 (1709195390.155754)  vcan0  0000017C   [8]  C0 00 00 00 00 00 00 00
 (1709195390.156190)  vcan0  000001A3   [8]  00 00 00 00 02 00 00 00
 (1709195390.213497)  vcan0  0000014A   [8]  00 F7 00 00 00 00 00 00
 (1709195390.214111)  vcan0  0000017C   [8]  C0 00 00 00 00 00 00 00
 (1709195390.214685)  vcan0  000001A3   [8]  00 00 00 00 02 00 00 00
 (1709195390.252715)  vcan0  0000014A   [8]  01 1D 00 00 00 00 00 00
 (1709195390.253209)  vcan0  0000017C   [8]  00 00 00 00 00 00 03 80
 (1709195390.253690)  vcan0  000001A3   [8]  00 00 00 00 02 00 00 00
 (1709195390.322003)  vcan0  0000014A   [8]  01 11 00 00 00 00 00 00
 (1709195390.322701)  vcan0  0000017C   [8]  00 00 00 00 00 00 04 C0
 (1709195390.323230)  vcan0  000001A3   [8]  00 00 00 00 02 00 00 00
 (1709195390.364840)  vcan0  0000014A   [8]  01 0D 00 00 00 00 00 00
 (1709195390.365478)  vcan0  0000017C   [8]  00 00 00 00 00 00 04 C0
 (1709195390.365962)  vcan0  000001A3   [8]  00 00 00 00 02 00 00 00
 (1709195390.388152)  vcan0  0000014A   [8]  01 0D 00 00 00 00 00 00
 (1709195390.388590)  vcan0  0000017C   [8]  00 00 00 00 00 00 04 C0
 (1709195390.389081)  vcan0  000001A3   [8]  00 00 00 00 02 00 00 00
 (1709195390.431189)  vcan0  0000014A   [8]  00 FF 00 00 00 00 00 00
 (1709195390.431822)  vcan0  0000017C   [8]  00 00 00 00 00 00 04 C0
 (1709195390.432309)  vcan0  000001A3   [8]  00 00 00 00 02 00 00 00
 (1709195390.493083)  vcan0  0000014A   [8]  00 F7 00 00 00 00 00 00
 (1709195390.493878)  vcan0  0000017C   [8]  00 00 00 00 00 00 04 C0
 (1709195390.495665)  vcan0  000001A3   [8]  00 00 00 00 02 00 00 00
 (1709195390.563652)  vcan0  0000014A   [8]  00 F8 00 00 00 00 00 00
 (1709195390.564065)  vcan0  0000017C   [8]  00 00 00 00 00 00 03 C0
 (1709195390.564463)  vcan0  000001A3   [8]  00 00 00 00 00 00 00 00
 (1709195390.593656)  vcan0  0000014A   [8]  01 17 00 00 00 00 00 00
 (1709195390.594352)  vcan0  0000017C   [8]  C0 00 00 00 00 00 00 00
 (1709195390.594717)  vcan0  000001A3   [8]  00 00 00 00 00 00 00 00
 (1709195390.619840)  vcan0  0000014A   [8]  01 17 00 00 00 00 00 00
 (1709195390.620320)  vcan0  0000017C   [8]  C0 00 00 00 00 00 00 00
 (1709195390.620790)  vcan0  000001A3   [8]  00 00 00 00 01 00 00 00
 (1709195390.655759)  vcan0  0000014A   [8]  01 0C 00 00 00 00 00 00
 (1709195390.656281)  vcan0  0000017C   [8]  C0 00 00 00 00 00 00 00
 (1709195390.656692)  vcan0  000001A3   [8]  00 00 00 00 01 00 00 00
 (1709195390.672372)  vcan0  0000014A   [8]  01 06 00 00 00 00 00 00
 (1709195390.673036)  vcan0  0000017C   [8]  C0 00 00 00 00 00 00 00
 (1709195390.673423)  vcan0  000001A3   [8]  00 00 00 00 01 00 00 00
 (1709195390.731717)  vcan0  0000014A   [8]  00 F8 00 00 00 00 00 00
 (1709195390.732150)  vcan0  0000017C   [8]  C0 00 00 00 00 00 00 00
 (1709195390.732494)  vcan0  000001A3   [8]  00 00 00 00 01 00 00 00
 (1709195390.751975)  vcan0  0000014A   [8]  00 F8 00 00 00 00 00 00
 (1709195390.752370)  vcan0  0000017C   [8]  C0 00 00 00 00 00 00 00
 (1709195390.752696)  vcan0  000001A3   [8]  00 00 00 00 01 00 00 00
 (1709195390.782587)  vcan0  0000014A   [8]  00 F7 00 00 00 00 00 00
 (1709195390.783104)  vcan0  0000017C   [8]  C0 00 00 00 00 00 00 00
 (1709195390.783445)  vcan0  000001A3   [8]  00 00 00 00 01 00 00 00
 (1709195390.827312)  vcan0  0000014A   [8]  01 08 00 00 00 00 00 00
 (1709195390.827967)  vcan0  0000017C   [8]  C0 00 00 00 00 00 00 00
 (1709195390.828770)  vcan0  000001A3   [8]  00 00 00 00 01 00 00 00
 (1709195390.850405)  vcan0  0000014A   [8]  01 06 00 00 00 00 00 00
 (1709195390.850887)  vcan0  0000017C   [8]  C0 00 00 00 00 00 00 00
 (1709195390.851290)  vcan0  000001A3   [8]  00 00 00 00 01 00 00 00
 (1709195390.883730)  vcan0  0000014A   [8]  01 06 00 00 00 00 00 00
 (1709195390.884562)  vcan0  0000017C   [8]  C0 00 00 00 00 00 00 00
 (1709195390.885209)  vcan0  000001A3   [8]  00 00 00 00 01 00 00 00
 (1709195390.911041)  vcan0  0000014A   [8]  01 04 00 00 00 00 00 00
 (1709195390.911454)  vcan0  0000017C   [8]  C0 00 00 00 00 00 00 00
 (1709195390.911754)  vcan0  000001A3   [8]  00 00 00 00 01 00 00 00
 (1709195390.939412)  vcan0  0000014A   [8]  01 01 00 00 00 00 00 00
 (1709195390.939884)  vcan0  0000017C   [8]  C0 00 00 00 00 00 00 00
 (1709195390.940455)  vcan0  000001A3   [8]  00 00 00 00 01 00 00 00
 (1709195391.004419)  vcan0  0000014A   [8]  00 FE 00 00 00 00 00 00
 (1709195391.005149)  vcan0  0000017C   [8]  C0 00 00 00 00 00 00 00
 (1709195391.005560)  vcan0  000001A3   [8]  00 00 00 00 00 00 00 00
 (1709195391.061216)  vcan0  0000014A   [8]  01 08 00 00 00 00 00 00
 (1709195391.061821)  vcan0  0000017C   [8]  C0 00 00 00 00 00 00 00
 (1709195391.062259)  vcan0  000001A3   [8]  00 00 00 00 02 00 00 00
 (1709195391.091252)  vcan0  0000014A   [8]  01 00 00 00 00 00 00 00
 (1709195391.091710)  vcan0  0000017C   [8]  C0 00 00 00 00 00 00 00
 (1709195391.092049)  vcan0  000001A3   [8]  00 00 00 00 02 00 00 00
 (1709195391.138537)  vcan0  0000014A   [8]  00 FD 00 00 00 00 00 00
 (1709195391.138987)  vcan0  0000017C   [8]  C0 00 00 00 00 00 00 00
 (1709195391.139309)  vcan0  000001A3   [8]  00 00 00 00 02 00 00 00
 (1709195391.170822)  vcan0  0000014A   [8]  01 03 00 00 00 00 00 00
 (1709195391.171232)  vcan0  0000017C   [8]  00 00 00 00 00 00 04 C0
 (1709195391.171534)  vcan0  000001A3   [8]  00 00 00 00 02 00 00 00
 (1709195391.206236)  vcan0  0000014A   [8]  01 02 00 00 00 00 00 00
 (1709195391.206887)  vcan0  0000017C   [8]  00 00 00 00 00 00 04 C0
 (1709195391.207245)  vcan0  000001A3   [8]  00 00 00 00 02 00 00 00
 (1709195391.242167)  vcan0  0000014A   [8]  01 02 00 00 00 00 00 00
 (1709195391.242755)  vcan0  0000017C   [8]  00 00 00 00 00 00 04 C0
 (1709195391.243384)  vcan0  000001A3   [8]  00 00 00 00 02 00 00 00
 (1709195391.331501)  vcan0  0000014A   [8]  01 06 00 00 00 00 00 00
 (1709195391.336026)  vcan0  0000017C   [8]  00 00 00 00 00 00 04 C0
 (1709195391.336577)  vcan0  000001A3   [8]  00 00 00 00 02 00 00 00
 (1709195391.364491)  vcan0  0000014A   [8]  00 FF 00 00 00 00 00 00
 (1709195391.364972)  vcan0  0000017C   [8]  00 00 00 00 00 00 04 C0
 (1709195391.365354)  vcan0  000001A3   [8]  00 00 00 00 02 00 00 00
 (1709195391.397840)  vcan0  0000014A   [8]  00 FF 00 00 00 00 00 00
 (1709195391.399232)  vcan0  0000017C   [8]  00 00 00 00 00 00 04 C0
 (1709195391.399968)  vcan0  000001A3   [8]  00 00 00 00 02 00 00 00
 (1709195391.427745)  vcan0  0000014A   [8]  00 FC 00 00 00 00 00 00
 (1709195391.428195)  vcan0  0000017C   [8]  4B 00 00 00 00 00 00 00
 (1709195391.428499)  vcan0  000001A3   [8]  00 00 00 00 02 00 00 00
 (1709195391.452872)  vcan0  0000014A   [8]  00 FC 00 00 00 00 00 00
 (1709195391.453514)  vcan0  0000017C   [8]  4B 00 00 00 00 00 00 00
 (1709195391.453944)  vcan0  000001A3   [8]  00 00 00 00 02 00 00 00
 (1709195391.489950)  vcan0  0000014A   [8]  01 03 00 00 00 00 00 00
 (1709195391.490557)  vcan0  0000017C   [8]  C0 00 00 00 00 00 00 00
 (1709195391.490966)  vcan0  000001A3   [8]  00 00 00 00 02 00 00 00
 (1709195391.520671)  vcan0  0000014A   [8]  01 03 00 00 00 00 00 00
 (1709195391.521444)  vcan0  0000017C   [8]  C0 00 00 00 00 00 00 00
 (1709195391.522030)  vcan0  000001A3   [8]  00 00 00 00 02 00 00 00
 (1709195391.552008)  vcan0  0000014A   [8]  01 01 00 00 00 00 00 00
 (1709195391.552531)  vcan0  0000017C   [8]  C0 00 00 00 00 00 00 00
 (1709195391.552940)  vcan0  000001A3   [8]  00 00 00 00 02 00 00 00
 (1709195391.577477)  vcan0  0000014A   [8]  01 01 00 00 00 00 00 00
 (1709195391.578101)  vcan0  0000017C   [8]  C0 00 00 00 00 00 00 00
 (1709195391.578449)  vcan0  000001A3   [8]  00 00 00 00 02 00 00 00
 (1709195391.623085)  vcan0  0000014A   [8]  00 FF 00 00 00 00 00 00
 (1709195391.623512)  vcan0  0000017C   [8]  C0 00 00 00 00 00 00 00
 (1709195391.623813)  vcan0  000001A3   [8]  00 00 00 00 02 00 00 00
 (1709195391.638734)  vcan0  0000014A   [8]  00 FF 00 00 00 00 00 00
 (1709195391.639154)  vcan0  0000017C   [8]  C0 00 00 00 00 00 00 00
 (1709195391.639577)  vcan0  000001A3   [8]  00 00 00 00 02 00 00 00
 (1709195391.663523)  vcan0  0000014A   [8]  00 FE 00 00 00 00 00 00
 (1709195391.663976)  vcan0  0000017C   [8]  C0 00 00 00 00 00 00 00
 (1709195391.664311)  vcan0  000001A3   [8]  00 00 00 00 02 00 00 00
 (1709195391.720907)  vcan0  0000014A   [8]  01 01 00 00 00 00 00 00
 (1709195391.721415)  vcan0  0000017C   [8]  C0 00 00 00 00 00 00 00
 (1709195391.721841)  vcan0  000001A3   [8]  00 00 00 00 02 00 00 00
 (1709195391.732329)  vcan0  0000014A   [8]  01 01 00 00 00 00 00 00
 (1709195391.732796)  vcan0  0000017C   [8]  C0 00 00 00 00 00 00 00
 (1709195391.733131)  vcan0  000001A3   [8]  00 00 00 00 02 00 00 00
 (1709195391.781791)  vcan0  0000014A   [8]  01 01 00 00 00 00 00 00
 (1709195391.782358)  vcan0  0000017C   [8]  C0 00 00 00 00 00 00 00
 (1709195391.782811)  vcan0  000001A3   [8]  00 00 00 00 02 00 00 00
 (1709195391.796757)  vcan0  0000014A   [8]  01 01 00 00 00 00 00 00
 (1709195391.797271)  vcan0  0000017C   [8]  95 00 00 00 00 00 00 00
 (1709195391.797615)  vcan0  000001A3   [8]  00 00 00 00 02 00 00 00
 (1709195391.821506)  vcan0  0000014A   [8]  01 01 00 00 00 00 00 00
 (1709195391.822013)  vcan0  0000017C   [8]  95 00 00 00 00 00 00 00
 (1709195391.822345)  vcan0  000001A3   [8]  00 00 00 00 02 00 00 00
 (1709195391.870734)  vcan0  0000014A   [8]  01 01 00 00 00 00 00 00
 (1709195391.871163)  vcan0  0000017C   [8]  00 00 00 00 00 00 04 C0
 (1709195391.871463)  vcan0  000001A3   [8]  00 00 00 00 02 00 00 00
 (1709195391.893394)  vcan0  0000014A   [8]  01 01 00 00 00 00 00 00
 (1709195391.894005)  vcan0  0000017C   [8]  00 00 00 00 00 00 04 C0
 (1709195391.894427)  vcan0  000001A3   [8]  00 00 00 00 02 00 00 00
 (1709195391.931994)  vcan0  0000014A   [8]  01 01 00 00 00 00 00 00
 (1709195391.932562)  vcan0  0000017C   [8]  00 00 00 00 00 00 04 C0
 (1709195391.933290)  vcan0  000001A3   [8]  00 00 00 00 02 00 00 00
 (1709195391.988268)  vcan0  0000014A   [8]  01 02 00 00 00 00 00 00
 (1709195391.988761)  vcan0  0000017C   [8]  00 00 00 00 00 00 04 C0
 (1709195391.989196)  vcan0  000001A3   [8]  00 00 00 00 02 00 00 00
 (1709195392.011756)  vcan0  0000014A   [8]  01 02 00 00 00 00 00 00
 (1709195392.012164)  vcan0  0000017C   [8]  00 00 00 00 00 00 04 C0
 (1709195392.012456)  vcan0  000001A3   [8]  00 00 00 00 02 00 00 00
 (1709195392.050282)  vcan0  0000014A   [8]  00 FF 00 00 00 00 00 00
 (1709195392.050932)  vcan0  0000017C   [8]  00 00 00 00 00 00 04 C0
 (1709195392.051388)  vcan0  000001A3   [8]  00 00 00 00 02 00 00 00
 (1709195392.114174)  vcan0  0000014A   [8]  00 FF 00 00 00 00 00 00
 (1709195392.114692)  vcan0  0000017C   [8]  41 00 00 00 00 00 00 00
 (1709195392.115020)  vcan0  000001A3   [8]  00 00 00 00 02 00 00 00
 (1709195392.147924)  vcan0  0000014A   [8]  00 FF 00 00 00 00 00 00
 (1709195392.148505)  vcan0  0000017C   [8]  C0 00 00 00 00 00 00 00
 (1709195392.149016)  vcan0  000001A3   [8]  00 00 00 00 02 00 00 00
 (1709195392.200808)  vcan0  0000014A   [8]  01 02 00 00 00 00 00 00
 (1709195392.201370)  vcan0  0000017C   [8]  C0 00 00 00 00 00 00 00
 (1709195392.201942)  vcan0  000001A3   [8]  00 00 00 00 02 00 00 00
 (1709195392.260361)  vcan0  0000014A   [8]  01 02 00 00 00 00 00 00
 (1709195392.261456)  vcan0  0000017C   [8]  C0 00 00 00 00 00 00 00
 (1709195392.261864)  vcan0  000001A3   [8]  00 00 00 00 02 00 00 00
 (1709195392.350900)  vcan0  0000014A   [8]  01 01 00 00 00 00 00 00
 (1709195392.382830)  vcan0  0000017C   [8]  C0 00 00 00 00 00 00 00
 (1709195392.383448)  vcan0  000001A3   [8]  00 00 00 00 02 00 00 00
 (1709195392.441270)  vcan0  0000014A   [8]  00 FF 00 00 00 00 00 00
 (1709195392.442936)  vcan0  0000017C   [8]  35 00 00 00 00 00 00 00
 (1709195392.443542)  vcan0  000001A3   [8]  00 00 00 00 02 00 00 00
 (1709195392.466317)  vcan0  0000014A   [8]  01 00 00 00 00 00 00 00
 (1709195392.466808)  vcan0  0000017C   [8]  00 00 00 00 00 00 04 C0
 (1709195392.467170)  vcan0  000001A3   [8]  00 00 00 00 02 00 00 00
 (1709195392.475199)  vcan0  0000014A   [8]  01 00 00 00 00 00 00 00
 (1709195392.475755)  vcan0  0000017C   [8]  00 00 00 00 00 00 04 C0
 (1709195392.476053)  vcan0  000001A3   [8]  00 00 00 00 02 00 00 00
 (1709195392.508381)  vcan0  0000014A   [8]  01 00 00 00 00 00 00 00
 (1709195392.509225)  vcan0  0000017C   [8]  00 00 00 00 00 00 04 C0
 (1709195392.509650)  vcan0  000001A3   [8]  00 00 00 00 02 00 00 00
 (1709195392.542603)  vcan0  0000014A   [8]  01 01 00 00 00 00 00 00
 (1709195392.543100)  vcan0  0000017C   [8]  00 00 00 00 00 00 04 C0
 (1709195392.543461)  vcan0  000001A3   [8]  00 00 00 00 02 00 00 00
 (1709195392.571627)  vcan0  0000014A   [8]  01 01 00 00 00 00 00 00
 (1709195392.572048)  vcan0  0000017C   [8]  00 00 00 00 00 00 04 C0
 (1709195392.572663)  vcan0  000001A3   [8]  00 00 00 00 02 00 00 00
 (1709195392.608898)  vcan0  0000014A   [8]  01 01 00 00 00 00 00 00
 (1709195392.609365)  vcan0  0000017C   [8]  5D 00 00 00 00 00 00 00
 (1709195392.609727)  vcan0  000001A3   [8]  00 00 00 00 02 00 00 00
 (1709195392.651179)  vcan0  0000014A   [8]  01 01 00 00 00 00 00 00
 (1709195392.651660)  vcan0  0000017C   [8]  C0 00 00 00 00 00 00 00
 (1709195392.652191)  vcan0  000001A3   [8]  00 00 00 00 02 00 00 00
 (1709195392.671546)  vcan0  0000014A   [8]  01 00 00 00 00 00 00 00
 (1709195392.672377)  vcan0  0000017C   [8]  C0 00 00 00 00 00 00 00
 (1709195392.672820)  vcan0  000001A3   [8]  00 00 00 00 02 00 00 00
 (1709195392.713990)  vcan0  0000014A   [8]  01 00 00 00 00 00 00 00
 (1709195392.715179)  vcan0  0000017C   [8]  C0 00 00 00 00 00 00 00
 (1709195392.715766)  vcan0  000001A3   [8]  00 00 00 00 02 00 00 00
 (1709195392.735145)  vcan0  0000014A   [8]  01 00 00 00 00 00 00 00
 (1709195392.735592)  vcan0  0000017C   [8]  C0 00 00 00 00 00 00 00
 (1709195392.735930)  vcan0  000001A3   [8]  00 00 00 00 02 00 00 00
 (1709195392.784411)  vcan0  0000014A   [8]  01 7A 00 00 00 00 00 00
 (1709195392.784897)  vcan0  0000017C   [8]  C0 00 00 00 00 00 00 00
 (1709195392.785274)  vcan0  000001A3   [8]  00 00 00 00 02 00 00 00
 (1709195392.831896)  vcan0  0000014A   [8]  01 33 00 00 00 00 00 00
 (1709195392.832515)  vcan0  0000017C   [8]  C0 00 00 00 00 00 00 00
 (1709195392.832942)  vcan0  000001A3   [8]  00 00 00 00 02 00 00 00
 (1709195392.875846)  vcan0  0000014A   [8]  01 0E 00 00 00 00 00 00
 (1709195392.877033)  vcan0  0000017C   [8]  C0 00 00 00 00 00 00 00
 (1709195392.878091)  vcan0  000001A3   [8]  00 00 00 00 02 00 00 00
