 (000.000000)  vcan0  0000014A   [8]  01 00 00 00 00 00 00 00
 (000.001061)  vcan0  0000017C   [8]  00 00 00 00 00 00 00 00
 (000.001847)  vcan0  000001A3   [8]  00 00 00 00 00 00 00 00
 (000.225657)  vcan0  0000014A   [8]  01 2C 00 00 00 00 00 00
 (000.226416)  vcan0  0000017C   [8]  C0 00 00 00 00 00 00 00
 (000.227247)  vcan0  000001A3   [8]  00 00 00 00 00 00 00 00
 (000.437782)  vcan0  0000014A   [8]  01 2C 00 00 00 00 00 00
 (000.438880)  vcan0  0000017C   [8]  C0 00 00 00 00 00 00 00
 (000.439463)  vcan0  000001A3   [8]  00 00 00 00 00 00 00 00
 (000.650460)  vcan0  0000014A   [8]  01 2C 00 00 00 00 00 00
 (000.651452)  vcan0  0000017C   [8]  C0 00 00 00 00 00 00 00
 (000.652033)  vcan0  000001A3   [8]  00 00 00 00 00 00 00 00
 (000.860661)  vcan0  0000014A   [8]  01 2C 00 00 00 00 00 00
 (000.862017)  vcan0  0000017C   [8]  C0 00 00 00 00 00 00 00
 (000.862968)  vcan0  000001A3   [8]  00 00 00 00 00 00 00 00
 (001.078564)  vcan0  0000014A   [8]  01 2C 00 00 00 00 00 00
 (001.079629)  vcan0  0000017C   [8]  C0 00 00 00 00 00 00 00
 (001.080298)  vcan0  000001A3   [8]  00 00 00 00 00 00 00 00
 (001.302883)  vcan0  0000014A   [8]  01 2C 00 00 00 00 00 00
 (001.303671)  vcan0  0000017C   [8]  C0 00 00 00 00 00 00 00
 (001.304277)  vcan0  000001A3   [8]  00 00 00 00 00 00 00 00
 (001.516540)  vcan0  0000014A   [8]  01 2C 00 00 00 00 00 00
 (001.517426)  vcan0  0000017C   [8]  C0 00 00 00 00 00 00 00
 (001.518061)  vcan0  000001A3   [8]  00 00 00 00 01 00 00 00
 (001.728677)  vcan0  0000014A   [8]  01 2A 00 00 00 00 00 00
 (001.729508)  vcan0  0000017C   [8]  C0 00 00 00 00 00 00 00
 (001.730093)  vcan0  000001A3   [8]  00 00 00 00 01 00 00 00
 (001.946522)  vcan0  0000014A   [8]  00 F7 00 00 00 00 00 00
 (001.948503)  vcan0  0000017C   [8]  C0 00 00 00 00 00 00 00
 (001.954154)  vcan0  000001A3   [8]  00 00 00 00 01 00 00 00
 (002.160535)  vcan0  0000014A   [8]  01 20 00 00 00 00 00 00
 (002.161516)  vcan0  0000017C   [8]  C0 00 00 00 00 00 00 00
 (002.162197)  vcan0  000001A3   [8]  00 00 00 00 01 00 00 00
 (002.375516)  vcan0  0000014A   [8]  01 0F 00 00 00 00 00 00
 (002.376335)  vcan0  0000017C   [8]  C0 00 00 00 00 00 00 00
 (002.377009)  vcan0  000001A3   [8]  00 00 00 00 01 00 00 00
 (002.595653)  vcan0  0000014A   [8]  01 0E 00 00 00 00 00 00
 (002.596905)  vcan0  0000017C   [8]  C0 00 00 00 00 00 00 00
 (002.597900)  vcan0  000001A3   [8]  00 00 00 00 01 00 00 00
 (002.809102)  vcan0  0000014A   [8]  01 0C 00 00 00 00 00 00
 (002.810257)  vcan0  0000017C   [8]  C0 00 00 00 00 00 00 00
 (002.811091)  vcan0  000001A3   [8]  00 00 00 00 01 00 00 00
 (003.023095)  vcan0  0000014A   [8]  00 ED 00 00 00 00 00 00
 (003.024096)  vcan0  0000017C   [8]  C0 00 00 00 00 00 00 00
 (003.024871)  vcan0  000001A3   [8]  00 00 00 00 01 00 00 00
 (003.235644)  vcan0  0000014A   [8]  01 10 00 00 00 00 00 00
 (003.236577)  vcan0  0000017C   [8]  C0 00 00 00 00 00 00 00
 (003.237204)  vcan0  000001A3   [8]  00 00 00 00 01 00 00 00
 (003.456373)  vcan0  0000014A   [8]  01 03 00 00 00 00 00 00
 (003.457333)  vcan0  0000017C   [8]  C0 00 00 00 00 00 00 00
 (003.458018)  vcan0  000001A3   [8]  00 00 00 00 01 00 00 00
 (003.669631)  vcan0  0000014A   [8]  00 EF 00 00 00 00 00 00
 (003.670811)  vcan0  0000017C   [8]  C0 00 00 00 00 00 00 00
 (003.671900)  vcan0  000001A3   [8]  00 00 00 00 01 00 00 00
 (003.892680)  vcan0  0000014A   [8]  01 08 00 00 00 00 00 00
 (003.899778)  vcan0  0000017C   [8]  C0 00 00 00 00 00 00 00
 (003.905218)  vcan0  000001A3   [8]  00 00 00 00 01 00 00 00
 (004.100981)  vcan0  0000014A   [8]  01 02 00 00 00 00 00 00
 (004.102398)  vcan0  0000017C   [8]  C0 00 00 00 00 00 00 00
 (004.103207)  vcan0  000001A3   [8]  00 00 00 00 01 00 00 00
 (004.324297)  vcan0  0000014A   [8]  00 F1 00 00 00 00 00 00
 (004.325107)  vcan0  0000017C   [8]  C0 00 00 00 00 00 00 00
 (004.325856)  vcan0  000001A3   [8]  00 00 00 00 01 00 00 00
 (004.539901)  vcan0  0000014A   [8]  01 04 00 00 00 00 00 00
 (004.540913)  vcan0  0000017C   [8]  C0 00 00 00 00 00 00 00
 (004.541800)  vcan0  000001A3   [8]  00 00 00 00 00 00 00 00
 (004.756343)  vcan0  0000014A   [8]  00 FD 00 00 00 00 00 00
 (004.757233)  vcan0  0000017C   [8]  C0 00 00 00 00 00 00 00
 (004.757992)  vcan0  000001A3   [8]  00 00 00 00 02 00 00 00
 (004.973322)  vcan0  0000014A   [8]  01 01 00 00 00 00 00 00
 (004.974094)  vcan0  0000017C   [8]  C0 00 00 00 00 00 00 00
 (004.974836)  vcan0  000001A3   [8]  00 00 00 00 02 00 00 00
 (005.199071)  vcan0  0000014A   [8]  01 0E 00 00 00 00 00 00
 (005.199890)  vcan0  0000017C   [8]  B3 00 00 00 00 00 00 00
 (005.200517)  vcan0  000001A3   [8]  00 00 00 00 02 00 00 00
 (005.419296)  vcan0  0000014A   [8]  01 00 00 00 00 00 00 00
 (005.420122)  vcan0  0000017C   [8]  00 00 00 00 00 00 04 C0
 (005.420737)  vcan0  000001A3   [8]  00 00 00 00 02 00 00 00
 (005.657182)  vcan0  0000014A   [8]  01 0E 00 00 00 00 00 00
 (005.657921)  vcan0  0000017C   [8]  00 00 00 00 00 00 04 C0
 (005.658579)  vcan0  000001A3   [8]  00 00 00 00 02 00 00 00
 (005.864210)  vcan0  0000014A   [8]  01 0E 00 00 00 00 00 00
 (005.864975)  vcan0  0000017C   [8]  00 00 00 00 00 00 04 C0
 (005.865666)  vcan0  000001A3   [8]  00 00 00 00 02 00 00 00
 (006.091335)  vcan0  0000014A   [8]  01 10 00 00 00 00 00 00
 (006.098277)  vcan0  0000017C   [8]  37 00 00 00 00 00 00 00
 (006.099043)  vcan0  000001A3   [8]  00 00 00 00 02 00 00 00
 (006.305654)  vcan0  0000014A   [8]  01 0E 00 00 00 00 00 00
 (006.308121)  vcan0  0000017C   [8]  C0 00 00 00 00 00 00 00
 (006.316553)  vcan0  000001A3   [8]  00 00 00 00 02 00 00 00
 (006.521871)  vcan0  0000014A   [8]  01 10 00 00 00 00 00 00
 (006.522633)  vcan0  0000017C   [8]  C0 00 00 00 00 00 00 00
 (006.523208)  vcan0  000001A3   [8]  00 00 00 00 02 00 00 00
 (006.740033)  vcan0  0000014A   [8]  01 16 00 00 00 00 00 00
 (006.741012)  vcan0  0000017C   [8]  C0 00 00 00 00 00 00 00
 (006.741951)  vcan0  000001A3   [8]  00 00 00 00 02 00 00 00
 (006.956596)  vcan0  0000014A   [8]  01 0A 00 00 00 00 00 00
 (006.957476)  vcan0  0000017C   [8]  C0 00 00 00 00 00 00 00
 (006.958388)  vcan0  000001A3   [8]  00 00 00 00 02 00 00 00
 (007.180110)  vcan0  0000014A   [8]  00 FA 00 00 00 00 00 00
 (007.181394)  vcan0  0000017C   [8]  2B 00 00 00 00 00 00 00
 (007.182143)  vcan0  000001A3   [8]  00 00 00 00 02 00 00 00
 (007.398526)  vcan0  0000014A   [8]  01 07 00 00 00 00 00 00
 (007.399790)  vcan0  0000017C   [8]  00 00 00 00 00 00 04 C0
 (007.400855)  vcan0  000001A3   [8]  00 00 00 00 02 00 00 00
 (007.618993)  vcan0  0000014A   [8]  01 04 00 00 00 00 00 00
 (007.620232)  vcan0  0000017C   [8]  00 00 00 00 00 00 04 C0
 (007.621253)  vcan0  000001A3   [8]  00 00 00 00 02 00 00 00
 (007.835629)  vcan0  0000014A   [8]  01 05 00 00 00 00 00 00
 (007.836564)  vcan0  0000017C   [8]  AB 00 00 00 00 00 00 00
 (007.837353)  vcan0  000001A3   [8]  00 00 00 00 02 00 00 00
 (008.061316)  vcan0  0000014A   [8]  01 02 00 00 00 00 00 00
 (008.062405)  vcan0  0000017C   [8]  C0 00 00 00 00 00 00 00
 (008.063528)  vcan0  000001A3   [8]  00 00 00 00 02 00 00 00
 (008.282449)  vcan0  0000014A   [8]  01 00 00 00 00 00 00 00
 (008.283120)  vcan0  0000017C   [8]  C0 00 00 00 00 00 00 00
 (008.283712)  vcan0  000001A3   [8]  00 00 00 00 02 00 00 00
 (008.499519)  vcan0  0000014A   [8]  01 01 00 00 00 00 00 00
 (008.500248)  vcan0  0000017C   [8]  C0 00 00 00 00 00 00 00
 (008.500837)  vcan0  000001A3   [8]  00 00 00 00 02 00 00 00
 (008.718591)  vcan0  0000014A   [8]  01 01 00 00 00 00 00 00
 (008.719454)  vcan0  0000017C   [8]  B6 00 00 00 00 00 00 00
 (008.720047)  vcan0  000001A3   [8]  00 00 00 00 02 00 00 00
 (008.937005)  vcan0  0000014A   [8]  01 00 00 00 00 00 00 00
 (008.938019)  vcan0  0000017C   [8]  00 00 00 00 00 00 04 C0
 (008.938737)  vcan0  000001A3   [8]  00 00 00 00 02 00 00 00
 (009.159925)  vcan0  0000014A   [8]  00 F4 00 00 00 00 00 00
 (009.160817)  vcan0  0000017C   [8]  00 00 00 00 00 00 04 C0
 (009.161513)  vcan0  000001A3   [8]  00 00 00 00 02 00 00 00
 (009.388747)  vcan0  0000014A   [8]  00 ED 00 00 00 00 00 00
 (009.389663)  vcan0  0000017C   [8]  00 00 00 00 00 00 04 C0
 (009.390986)  vcan0  000001A3   [8]  00 00 00 00 02 00 00 00
 (009.612323)  vcan0  0000014A   [8]  00 F2 00 00 00 00 00 00
 (009.613102)  vcan0  0000017C   [8]  77 00 00 00 00 00 00 00
 (009.613670)  vcan0  000001A3   [8]  00 00 00 00 02 00 00 00
 (009.832963)  vcan0  0000014A   [8]  00 F4 00 00 00 00 00 00
 (009.833809)  vcan0  0000017C   [8]  C0 00 00 00 00 00 00 00
 (009.834427)  vcan0  000001A3   [8]  00 00 00 00 02 00 00 00
 (010.068855)  vcan0  0000014A   [8]  00 EE 00 00 00 00 00 00
 (010.076376)  vcan0  0000017C   [8]  C0 00 00 00 00 00 00 00
 (010.077568)  vcan0  000001A3   [8]  00 00 00 00 02 00 00 00
 (010.293761)  vcan0  0000014A   [8]  00 E9 00 00 00 00 00 00
 (010.294791)  vcan0  0000017C   [8]  C0 00 00 00 00 00 00 00
 (010.295380)  vcan0  000001A3   [8]  00 00 00 00 02 00 00 00
 (010.520163)  vcan0  0000014A   [8]  00 F3 00 00 00 00 00 00
 (010.521071)  vcan0  0000017C   [8]  6B 00 00 00 00 00 00 00
 (010.521721)  vcan0  000001A3   [8]  00 00 00 00 02 00 00 00
 (010.748747)  vcan0  0000014A   [8]  00 EF 00 00 00 00 00 00
 (010.749587)  vcan0  0000017C   [8]  00 00 00 00 00 00 04 C0
 (010.750258)  vcan0  000001A3   [8]  00 00 00 00 02 00 00 00
 (010.973102)  vcan0  0000014A   [8]  00 EE 00 00 00 00 00 00
 (010.973871)  vcan0  0000017C   [8]  00 00 00 00 00 00 04 C0
 (010.974751)  vcan0  000001A3   [8]  00 00 00 00 02 00 00 00
 (011.202009)  vcan0  0000014A   [8]  00 EB 00 00 00 00 00 00
 (011.202842)  vcan0  0000017C   [8]  92 00 00 00 00 00 00 00
 (011.203401)  vcan0  000001A3   [8]  00 00 00 00 02 00 00 00
 (011.441911)  vcan0  0000014A   [8]  00 EB 00 00 00 00 00 00
 (011.442870)  vcan0  0000017C   [8]  C0 00 00 00 00 00 00 00
 (011.443500)  vcan0  000001A3   [8]  00 00 00 00 02 00 00 00
 (011.680306)  vcan0  0000014A   [8]  00 EC 00 00 00 00 00 00
 (011.682203)  vcan0  0000017C   [8]  C0 00 00 00 00 00 00 00
 (011.684633)  vcan0  000001A3   [8]  00 00 00 00 02 00 00 00
 (011.922612)  vcan0  0000014A   [8]  00 EB 00 00 00 00 00 00
 (011.923740)  vcan0  0000017C   [8]  C0 00 00 00 00 00 00 00
 (011.924730)  vcan0  000001A3   [8]  00 00 00 00 02 00 00 00
 (012.163207)  vcan0  0000014A   [8]  01 EB 00 00 00 00 00 00
 (012.165004)  vcan0  0000017C   [8]  14 00 00 00 00 00 00 00
 (012.168291)  vcan0  000001A3   [8]  00 00 00 00 02 00 00 00
 (012.407266)  vcan0  0000014A   [8]  02 EB 00 00 00 00 00 00
 (012.407924)  vcan0  0000017C   [8]  00 00 00 00 00 00 04 C0
 (012.408491)  vcan0  000001A3   [8]  00 00 00 00 02 00 00 00
 (012.648071)  vcan0  0000014A   [8]  02 B5 00 00 00 00 00 00
 (012.648762)  vcan0  0000017C   [8]  00 00 00 00 00 00 01 C0
 (012.649300)  vcan0  000001A3   [8]  00 00 00 00 02 00 00 00
 (012.884451)  vcan0  0000014A   [8]  01 B5 00 00 00 00 00 00
 (012.885229)  vcan0  0000017C   [8]  C0 00 00 00 00 00 00 00
 (012.889271)  vcan0  000001A3   [8]  00 00 00 00 02 00 00 00
 (013.123827)  vcan0  0000014A   [8]  01 75 00 00 00 00 00 00
 (013.124585)  vcan0  0000017C   [8]  C0 00 00 00 00 00 00 00
 (013.125191)  vcan0  000001A3   [8]  00 00 00 00 02 00 00 00
 (013.355038)  vcan0  0000014A   [8]  01 AC 00 00 00 00 00 00
 (013.355790)  vcan0  0000017C   [8]  C0 00 00 00 00 00 00 00
 (013.356459)  vcan0  000001A3   [8]  00 00 00 00 02 00 00 00
 (013.601021)  vcan0  0000014A   [8]  01 5D 00 00 00 00 00 00
 (013.601715)  vcan0  0000017C   [8]  C0 00 00 00 00 00 00 00
 (013.602330)  vcan0  000001A3   [8]  00 00 00 00 02 00 00 00
 (013.843132)  vcan0  0000014A   [8]  01 3B 00 00 00 00 00 00
 (013.844213)  vcan0  0000017C   [8]  68 00 00 00 00 00 00 00
 (013.844883)  vcan0  000001A3   [8]  00 00 00 00 02 00 00 00
 (014.075928)  vcan0  0000014A   [8]  01 3E 00 00 00 00 00 00
 (014.076678)  vcan0  0000017C   [8]  00 00 00 00 00 00 04 C0
 (014.077277)  vcan0  000001A3   [8]  00 00 00 00 02 00 00 00
 (014.311632)  vcan0  0000014A   [8]  01 22 00 00 00 00 00 00
 (014.312463)  vcan0  0000017C   [8]  00 00 00 00 00 00 04 C0
 (014.313052)  vcan0  000001A3   [8]  00 00 00 00 02 00 00 00
 (014.557815)  vcan0  0000014A   [8]  01 11 00 00 00 00 00 00
 (014.559009)  vcan0  0000017C   [8]  8A 00 00 00 00 00 00 00
 (014.559816)  vcan0  000001A3   [8]  00 00 00 00 02 00 00 00
 (014.792046)  vcan0  0000014A   [8]  01 11 00 00 00 00 00 00
 (014.792766)  vcan0  0000017C   [8]  C0 00 00 00 00 00 00 00
 (014.793670)  vcan0  000001A3   [8]  00 00 00 00 02 00 00 00
 (015.024316)  vcan0  0000014A   [8]  01 06 00 00 00 00 00 00
 (015.024947)  vcan0  0000017C   [8]  C0 00 00 00 00 00 00 00
 (015.025496)  vcan0  000001A3   [8]  00 00 00 00 02 00 00 00
 (015.256613)  vcan0  0000014A   [8]  00 FE 00 00 00 00 00 00
 (015.257914)  vcan0  0000017C   [8]  C0 00 00 00 00 00 00 00
 (015.258855)  vcan0  000001A3   [8]  00 00 00 00 02 00 00 00
 (015.502807)  vcan0  0000014A   [8]  01 00 00 00 00 00 00 00
 (015.503658)  vcan0  0000017C   [8]  17 00 00 00 00 00 00 00
 (015.504331)  vcan0  000001A3   [8]  00 00 00 00 02 00 00 00
 (015.737222)  vcan0  0000014A   [8]  00 FD 00 00 00 00 00 00
 (015.738048)  vcan0  0000017C   [8]  00 00 00 00 00 00 04 C0
 (015.738759)  vcan0  000001A3   [8]  00 00 00 00 02 00 00 00
 (015.974241)  vcan0  0000014A   [8]  00 F5 00 00 00 00 00 00
 (015.975107)  vcan0  0000017C   [8]  00 00 00 00 00 00 04 C0
 (015.976415)  vcan0  000001A3   [8]  00 00 00 00 02 00 00 00
 (016.221103)  vcan0  0000014A   [8]  FF F5 00 00 00 00 00 00
 (016.222026)  vcan0  0000017C   [8]  C0 00 00 00 00 00 00 00
 (016.222898)  vcan0  000001A3   [8]  00 00 00 00 02 00 00 00
 (016.459608)  vcan0  0000014A   [8]  00 66 00 00 00 00 00 00
 (016.460465)  vcan0  0000017C   [8]  C0 00 00 00 00 00 00 00
 (016.461482)  vcan0  000001A3   [8]  00 00 00 00 02 00 00 00
 (016.697163)  vcan0  0000014A   [8]  00 E1 00 00 00 00 00 00
 (016.697878)  vcan0  0000017C   [8]  C0 00 00 00 00 00 00 00
 (016.698503)  vcan0  000001A3   [8]  00 00 00 00 02 00 00 00
 (016.947680)  vcan0  0000014A   [8]  FF E1 00 00 00 00 00 00
 (016.949592)  vcan0  0000017C   [8]  C0 00 00 00 00 00 00 00
 (016.952199)  vcan0  000001A3   [8]  00 00 00 00 02 00 00 00
 (017.182857)  vcan0  0000014A   [8]  00 46 00 00 00 00 00 00
 (017.183689)  vcan0  0000017C   [8]  B3 00 00 00 00 00 00 00
 (017.184270)  vcan0  000001A3   [8]  00 00 00 00 02 00 00 00
 (017.419783)  vcan0  0000014A   [8]  FF 4B 00 00 00 00 00 00
 (017.422400)  vcan0  0000017C   [8]  00 00 00 00 00 00 04 C0
 (017.423173)  vcan0  000001A3   [8]  00 00 00 00 02 00 00 00
 (017.652764)  vcan0  0000014A   [8]  00 4B 00 00 00 00 00 00
 (017.653884)  vcan0  0000017C   [8]  00 00 00 00 00 00 04 C0
 (017.654728)  vcan0  000001A3   [8]  00 00 00 00 02 00 00 00
 (017.885431)  vcan0  0000014A   [8]  01 4B 00 00 00 00 00 00
 (017.886453)  vcan0  0000017C   [8]  00 00 00 00 00 00 04 00
 (017.887164)  vcan0  000001A3   [8]  00 00 00 00 02 00 00 00
 (018.115380)  vcan0  0000014A   [8]  00 4B 00 00 00 00 00 00
 (018.116261)  vcan0  0000017C   [8]  C0 00 00 00 00 00 00 00
 (018.116930)  vcan0  000001A3   [8]  00 00 00 00 02 00 00 00
 (018.345388)  vcan0  0000014A   [8]  00 BB 00 00 00 00 00 00
 (018.346137)  vcan0  0000017C   [8]  C0 00 00 00 00 00 00 00
 (018.346849)  vcan0  000001A3   [8]  00 00 00 00 02 00 00 00
 (018.584601)  vcan0  0000014A   [8]  00 F2 00 00 00 00 00 00
 (018.585431)  vcan0  0000017C   [8]  C0 00 00 00 00 00 00 00
 (018.586015)  vcan0  000001A3   [8]  00 00 00 00 02 00 00 00
 (018.819185)  vcan0  0000014A   [8]  FF F2 00 00 00 00 00 00
 (018.819920)  vcan0  0000017C   [8]  C0 00 00 00 00 00 00 00
 (018.820468)  vcan0  000001A3   [8]  00 00 00 00 02 00 00 00
 (019.057605)  vcan0  0000014A   [8]  00 F2 00 00 00 00 00 00
 (019.058304)  vcan0  0000017C   [8]  C0 00 00 00 00 00 00 00
 (019.058871)  vcan0  000001A3   [8]  00 00 00 00 02 00 00 00
 (019.309241)  vcan0  0000014A   [8]  00 84 00 00 00 00 00 00
 (019.309998)  vcan0  0000017C   [8]  00 00 00 00 00 00 04 C0
 (019.310665)  vcan0  000001A3   [8]  00 00 00 00 02 00 00 00
 (019.543773)  vcan0  0000014A   [8]  01 09 00 00 00 00 00 00
 (019.544418)  vcan0  0000017C   [8]  00 00 00 00 00 00 04 C0
 (019.544904)  vcan0  000001A3   [8]  00 00 00 00 02 00 00 00
 (019.788310)  vcan0  0000014A   [8]  00 D8 00 00 00 00 00 00
 (019.791345)  vcan0  0000017C   [8]  00 00 00 00 00 00 04 C0
 (019.794318)  vcan0  000001A3   [8]  00 00 00 00 02 00 00 00
 (020.026711)  vcan0  0000014A   [8]  00 5B 00 00 00 00 00 00
 (020.028124)  vcan0  0000017C   [8]  C0 00 00 00 00 00 00 00
 (020.030639)  vcan0  000001A3   [8]  00 00 00 00 02 00 00 00
 (020.275453)  vcan0  0000014A   [8]  01 34 00 00 00 00 00 00
 (020.276843)  vcan0  0000017C   [8]  C0 00 00 00 00 00 00 00
 (020.278245)  vcan0  000001A3   [8]  00 00 00 00 02 00 00 00
 (020.513134)  vcan0  0000014A   [8]  01 05 00 00 00 00 00 00
 (020.514599)  vcan0  0000017C   [8]  C0 00 00 00 00 00 00 00
 (020.516124)  vcan0  000001A3   [8]  00 00 00 00 02 00 00 00
 (020.747160)  vcan0  0000014A   [8]  00 6C 00 00 00 00 00 00
 (020.748521)  vcan0  0000017C   [8]  C0 00 00 00 00 00 00 00
 (020.749559)  vcan0  000001A3   [8]  00 00 00 00 02 00 00 00
 (020.983111)  vcan0  0000014A   [8]  01 37 00 00 00 00 00 00
 (020.983935)  vcan0  0000017C   [8]  C0 00 00 00 00 00 00 00
 (020.992759)  vcan0  000001A3   [8]  00 00 00 00 02 00 00 00
 (021.219808)  vcan0  0000014A   [8]  01 08 00 00 00 00 00 00
 (021.220543)  vcan0  0000017C   [8]  00 00 00 00 00 00 04 40
 (021.221403)  vcan0  000001A3   [8]  00 00 00 00 02 00 00 00
 (021.447733)  vcan0  0000014A   [8]  00 88 00 00 00 00 00 00
 (021.448197)  vcan0  0000017C   [8]  00 00 00 00 00 00 04 C0
 (021.448535)  vcan0  000001A3   [8]  00 00 00 00 02 00 00 00
 (021.687725)  vcan0  0000014A   [8]  01 2B 00 00 00 00 00 00
 (021.688114)  vcan0  0000017C   [8]  00 00 00 00 00 00 04 C0
 (021.688411)  vcan0  000001A3   [8]  00 00 00 00 02 00 00 00
 (021.922767)  vcan0  0000014A   [8]  00 DF 00 00 00 00 00 00
 (021.923429)  vcan0  0000017C   [8]  BB 00 00 00 00 00 00 00
 (021.923793)  vcan0  000001A3   [8]  00 00 00 00 02 00 00 00
 (022.162175)  vcan0  0000014A   [8]  00 F4 00 00 00 00 00 00
 (022.162878)  vcan0  0000017C   [8]  C0 00 00 00 00 00 00 00
 (022.163298)  vcan0  000001A3   [8]  00 00 00 00 02 00 00 00
 (022.389628)  vcan0  0000014A   [8]  01 04 00 00 00 00 00 00
 (022.390343)  vcan0  0000017C   [8]  C0 00 00 00 00 00 00 00
 (022.390950)  vcan0  000001A3   [8]  00 00 00 00 02 00 00 00
 (022.629542)  vcan0  0000014A   [8]  00 F7 00 00 00 00 00 00
 (022.630991)  vcan0  0000017C   [8]  C0 00 00 00 00 00 00 00
 (022.631405)  vcan0  000001A3   [8]  00 00 00 00 02 00 00 00
 (022.861587)  vcan0  0000014A   [8]  00 D3 00 00 00 00 00 00
 (022.861987)  vcan0  0000017C   [8]  C0 00 00 00 00 00 00 00
 (022.862326)  vcan0  000001A3   [8]  00 00 00 00 02 00 00 00
 (023.098445)  vcan0  0000014A   [8]  01 19 00 00 00 00 00 00
 (023.099095)  vcan0  0000017C   [8]  00 00 00 00 00 00 04 C0
 (023.099540)  vcan0  000001A3   [8]  00 00 00 00 02 00 00 00
 (023.329983)  vcan0  0000014A   [8]  00 E1 00 00 00 00 00 00
 (023.330788)  vcan0  0000017C   [8]  00 00 00 00 00 00 04 C0
 (023.331312)  vcan0  000001A3   [8]  00 00 00 00 02 00 00 00
 (023.567135)  vcan0  0000014A   [8]  01 00 00 00 00 00 00 00
 (023.568117)  vcan0  0000017C   [8]  00 00 00 00 00 00 04 C0
 (023.568686)  vcan0  000001A3   [8]  00 00 00 00 02 00 00 00
 (023.792949)  vcan0  0000014A   [8]  01 07 00 00 00 00 00 00
 (023.793581)  vcan0  0000017C   [8]  89 00 00 00 00 00 00 00
 (023.794015)  vcan0  000001A3   [8]  00 00 00 00 02 00 00 00
 (024.023065)  vcan0  0000014A   [8]  00 E3 00 00 00 00 00 00
 (024.023599)  vcan0  0000017C   [8]  C0 00 00 00 00 00 00 00
 (024.024041)  vcan0  000001A3   [8]  00 00 00 00 02 00 00 00
 (024.259399)  vcan0  0000014A   [8]  01 08 00 00 00 00 00 00
 (024.260073)  vcan0  0000017C   [8]  C0 00 00 00 00 00 00 00
 (024.260645)  vcan0  000001A3   [8]  00 00 00 00 02 00 00 00
 (024.487614)  vcan0  0000014A   [8]  01 02 00 00 00 00 00 00
 (024.488525)  vcan0  0000017C   [8]  C0 00 00 00 00 00 00 00
 (024.489280)  vcan0  000001A3   [8]  00 00 00 00 02 00 00 00
 (024.730206)  vcan0  0000014A   [8]  00 E8 00 00 00 00 00 00
 (024.731294)  vcan0  0000017C   [8]  A4 00 00 00 00 00 00 00
 (024.733394)  vcan0  000001A3   [8]  00 00 00 00 02 00 00 00
 (024.956717)  vcan0  0000014A   [8]  01 0B 00 00 00 00 00 00
 (024.957991)  vcan0  0000017C   [8]  00 00 00 00 00 00 04 C0
 (024.960987)  vcan0  000001A3   [8]  00 00 00 00 02 00 00 00
 (025.206992)  vcan0  0000014A   [8]  00 F6 00 00 00 00 00 00
 (025.207585)  vcan0  0000017C   [8]  00 00 00 00 00 00 04 C0
 (025.208096)  vcan0  000001A3   [8]  00 00 00 00 02 00 00 00
 (025.432697)  vcan0  0000014A   [8]  00 FE 00 00 00 00 00 00
 (025.433607)  vcan0  0000017C   [8]  00 00 00 00 00 00 02 00
 (025.434232)  vcan0  000001A3   [8]  00 00 00 00 02 00 00 00
 (025.661885)  vcan0  0000014A   [8]  01 02 00 00 00 00 00 00
 (025.663072)  vcan0  0000017C   [8]  C0 00 00 00 00 00 00 00
 (025.663790)  vcan0  000001A3   [8]  00 00 00 00 02 00 00 00
 (025.895286)  vcan0  0000014A   [8]  00 F6 00 00 00 00 00 00
 (025.896132)  vcan0  0000017C   [8]  C0 00 00 00 00 00 00 00
 (025.896836)  vcan0  000001A3   [8]  00 00 00 00 02 00 00 00
 (026.128009)  vcan0  0000014A   [8]  01 03 00 00 00 00 00 00
 (026.128824)  vcan0  0000017C   [8]  C0 00 00 00 00 00 00 00
 (026.129408)  vcan0  000001A3   [8]  00 00 00 00 02 00 00 00
 (026.358572)  vcan0  0000014A   [8]  01 01 00 00 00 00 00 00
 (026.359644)  vcan0  0000017C   [8]  C0 00 00 00 00 00 00 00
 (026.360568)  vcan0  000001A3   [8]  00 00 00 00 02 00 00 00
 (026.609463)  vcan0  0000014A   [8]  00 F7 00 00 00 00 00 00
 (026.610514)  vcan0  0000017C   [8]  C0 00 00 00 00 00 00 00
 (026.611279)  vcan0  000001A3   [8]  00 00 00 00 02 00 00 00
 (026.842388)  vcan0  0000014A   [8]  01 04 00 00 00 00 00 00
 (026.843289)  vcan0  0000017C   [8]  00 00 00 00 00 00 04 C0
 (026.844131)  vcan0  000001A3   [8]  00 00 00 00 02 00 00 00
 (027.078867)  vcan0  0000014A   [8]  00 FC 00 00 00 00 00 00
 (027.079644)  vcan0  0000017C   [8]  00 00 00 00 00 00 04 C0
 (027.080562)  vcan0  000001A3   [8]  00 00 00 00 02 00 00 00
 (027.314258)  vcan0  0000014A   [8]  00 FF 00 00 00 00 00 00
 (027.315094)  vcan0  0000017C   [8]  00 00 00 00 00 00 04 C0
 (027.315639)  vcan0  000001A3   [8]  00 00 00 00 02 00 00 00
 (027.552387)  vcan0  0000014A   [8]  01 01 00 00 00 00 00 00
 (027.553207)  vcan0  0000017C   [8]  A9 00 00 00 00 00 00 00
 (027.553868)  vcan0  000001A3   [8]  00 00 00 00 02 00 00 00
 (027.793349)  vcan0  0000014A   [8]  00 FC 00 00 00 00 00 00
 (027.794448)  vcan0  0000017C   [8]  C0 00 00 00 00 00 00 00
 (027.795132)  vcan0  000001A3   [8]  00 00 00 00 02 00 00 00
 (028.048553)  vcan0  0000014A   [8]  01 01 00 00 00 00 00 00
 (028.049931)  vcan0  0000017C   [8]  00 00 00 00 00 00 00 00
 (028.050654)  vcan0  000001A3   [8]  00 00 00 00 02 00 00 00
 (028.293263)  vcan0  0000014A   [8]  01 00 00 00 00 00 00 00
 (028.294507)  vcan0  0000017C   [8]  00 00 00 00 00 00 01 40
 (028.295435)  vcan0  000001A3   [8]  00 00 00 00 02 00 00 00
 (028.537262)  vcan0  0000014A   [8]  00 FC 00 00 00 00 00 00
 (028.538070)  vcan0  0000017C   [8]  79 00 00 00 00 00 00 00
 (028.538890)  vcan0  000001A3   [8]  00 00 00 00 02 00 00 00
 (028.798306)  vcan0  0000014A   [8]  01 01 00 00 00 00 00 00
 (028.799102)  vcan0  0000017C   [8]  C0 00 00 00 00 00 00 00
 (028.799674)  vcan0  000001A3   [8]  00 00 00 00 02 00 00 00
 (029.040055)  vcan0  0000014A   [8]  01 00 00 00 00 00 00 00
 (029.040903)  vcan0  0000017C   [8]  C0 00 00 00 00 00 00 00
 (029.041767)  vcan0  000001A3   [8]  00 00 00 00 02 00 00 00
 (029.296661)  vcan0  0000014A   [8]  00 FD 00 00 00 00 00 00
 (029.297593)  vcan0  0000017C   [8]  C0 00 00 00 00 00 00 00
 (029.301370)  vcan0  000001A3   [8]  00 00 00 00 02 00 00 00
 (029.547761)  vcan0  0000014A   [8]  01 01 00 00 00 00 00 00
 (029.548519)  vcan0  0000017C   [8]  17 00 00 00 00 00 00 00
 (029.554287)  vcan0  000001A3   [8]  00 00 00 00 02 00 00 00
 (029.794915)  vcan0  0000014A   [8]  01 00 00 00 00 00 00 00
 (029.795781)  vcan0  0000017C   [8]  00 00 00 00 00 00 04 C0
 (029.796441)  vcan0  000001A3   [8]  00 00 00 00 02 00 00 00
 (030.058851)  vcan0  0000014A   [8]  00 FF 00 00 00 00 00 00
 (030.061961)  vcan0  0000017C   [8]  00 00 00 00 00 00 04 C0
 (030.062898)  vcan0  000001A3   [8]  00 00 00 00 02 00 00 00
 (030.306083)  vcan0  0000014A   [8]  01 00 00 00 00 00 00 00
 (030.307130)  vcan0  0000017C   [8]  9D 00 00 00 00 00 00 00
 (030.307739)  vcan0  000001A3   [8]  00 00 00 00 02 00 00 00
 (030.564479)  vcan0  0000014A   [8]  01 00 00 00 00 00 00 00
 (030.565240)  vcan0  0000017C   [8]  C0 00 00 00 00 00 00 00
 (030.565785)  vcan0  000001A3   [8]  00 00 00 00 02 00 00 00
 (030.818714)  vcan0  0000014A   [8]  01 00 00 00 00 00 00 00
 (030.819487)  vcan0  0000017C   [8]  C0 00 00 00 00 00 00 00
 (030.820101)  vcan0  000001A3   [8]  00 00 00 00 02 00 00 00
 (031.077983)  vcan0  0000014A   [8]  01 00 00 00 00 00 00 00
 (031.078976)  vcan0  0000017C   [8]  C0 00 00 00 00 00 00 00
 (031.079713)  vcan0  000001A3   [8]  00 00 00 00 02 00 00 00
 (031.330945)  vcan0  0000014A   [8]  02 00 00 00 00 00 00 00
 (031.331987)  vcan0  0000017C   [8]  8A 00 00 00 00 00 00 00
 (031.332661)  vcan0  000001A3   [8]  00 00 00 00 02 00 00 00
 (031.590250)  vcan0  0000014A   [8]  01 00 00 00 00 00 00 00
 (031.591316)  vcan0  0000017C   [8]  00 00 00 00 00 00 04 C0
 (031.592021)  vcan0  000001A3   [8]  00 00 00 00 02 00 00 00
 (031.846910)  vcan0  0000014A   [8]  02 00 00 00 00 00 00 00
 (031.847648)  vcan0  0000017C   [8]  00 00 00 00 00 00 04 C0
 (031.848221)  vcan0  000001A3   [8]  00 00 00 00 02 00 00 00
 (032.096335)  vcan0  0000014A   [8]  01 00 00 00 00 00 00 00
 (032.101853)  vcan0  0000017C   [8]  2B 00 00 00 00 00 00 00
 (032.102591)  vcan0  000001A3   [8]  00 00 00 00 02 00 00 00
 (032.345848)  vcan0  0000014A   [8]  00 F7 00 00 00 00 00 00
 (032.346819)  vcan0  0000017C   [8]  C0 00 00 00 00 00 00 00
 (032.347621)  vcan0  000001A3   [8]  00 00 00 00 02 00 00 00
 (032.608214)  vcan0  0000014A   [8]  01 F7 00 00 00 00 00 00
 (032.608912)  vcan0  0000017C   [8]  C0 00 00 00 00 00 00 00
 (032.609535)  vcan0  000001A3   [8]  00 00 00 00 02 00 00 00
 (032.866563)  vcan0  0000014A   [8]  02 45 00 00 00 00 00 00
 (032.867896)  vcan0  0000017C   [8]  C0 00 00 00 00 00 00 00
 (032.868868)  vcan0  000001A3   [8]  00 00 00 00 02 00 00 00
 (033.117987)  vcan0  0000014A   [8]  01 45 00 00 00 00 00 00
 (033.119009)  vcan0  0000017C   [8]  C0 00 00 00 00 00 00 00
 (033.119764)  vcan0  000001A3   [8]  00 00 00 00 02 00 00 00
 (033.382241)  vcan0  0000014A   [8]  02 45 00 00 00 00 00 00
 (033.383125)  vcan0  0000017C   [8]  00 00 00 00 00 00 00 80
 (033.383646)  vcan0  000001A3   [8]  00 00 00 00 02 00 00 00
 (033.646336)  vcan0  0000014A   [8]  02 D9 00 00 00 00 00 00
 (033.647254)  vcan0  0000017C   [8]  00 00 00 00 00 00 04 C0
 (033.647906)  vcan0  000001A3   [8]  00 00 00 00 02 00 00 00
 (033.912227)  vcan0  0000014A   [8]  03 D9 00 00 00 00 00 00
 (033.912960)  vcan0  0000017C   [8]  00 00 00 00 00 00 04 C0
 (033.913652)  vcan0  000001A3   [8]  00 00 00 00 02 00 00 00
 (034.179305)  vcan0  0000014A   [8]  02 D9 00 00 00 00 00 00
 (034.180145)  vcan0  0000017C   [8]  C0 00 00 00 00 00 00 00
 (034.180843)  vcan0  000001A3   [8]  00 00 00 00 02 00 00 00
 (034.437158)  vcan0  0000014A   [8]  01 D9 00 00 00 00 00 00
 (034.438049)  vcan0  0000017C   [8]  C0 00 00 00 00 00 00 00
 (034.438986)  vcan0  000001A3   [8]  00 00 00 00 02 00 00 00
 (034.681673)  vcan0  0000014A   [8]  02 D9 00 00 00 00 00 00
 (034.682509)  vcan0  0000017C   [8]  C0 00 00 00 00 00 00 00
 (034.683179)  vcan0  000001A3   [8]  00 00 00 00 02 00 00 00
 (034.926000)  vcan0  0000014A   [8]  02 E0 00 00 00 00 00 00
 (034.928115)  vcan0  0000017C   [8]  C0 00 00 00 00 00 00 00
 (034.930773)  vcan0  000001A3   [8]  00 00 00 00 02 00 00 00
 (035.181277)  vcan0  0000014A   [8]  03 E0 00 00 00 00 00 00
 (035.182061)  vcan0  0000017C   [8]  C0 00 00 00 00 00 00 00
 (035.182744)  vcan0  000001A3   [8]  00 00 00 00 02 00 00 00
 (035.429423)  vcan0  0000014A   [8]  02 E0 00 00 00 00 00 00
 (035.430847)  vcan0  0000017C   [8]  00 00 00 00 00 00 03 80
 (035.442861)  vcan0  000001A3   [8]  00 00 00 00 02 00 00 00
 (035.676562)  vcan0  0000014A   [8]  03 E0 00 00 00 00 00 00
 (035.677365)  vcan0  0000017C   [8]  00 00 00 00 00 00 04 C0
 (035.677991)  vcan0  000001A3   [8]  00 00 00 00 02 00 00 00
 (035.923579)  vcan0  0000014A   [8]  02 F1 00 00 00 00 00 00
 (035.924642)  vcan0  0000017C   [8]  C0 00 00 00 00 00 00 00
 (035.925327)  vcan0  000001A3   [8]  00 00 00 00 02 00 00 00
 (036.172648)  vcan0  0000014A   [8]  03 F1 00 00 00 00 00 00
 (036.173509)  vcan0  0000017C   [8]  C0 00 00 00 00 00 00 00
 (036.174160)  vcan0  000001A3   [8]  00 00 00 00 02 00 00 00
 (036.430139)  vcan0  0000014A   [8]  03 77 00 00 00 00 00 00
 (036.431165)  vcan0  0000017C   [8]  C0 00 00 00 00 00 00 00
 (036.432076)  vcan0  000001A3   [8]  00 00 00 00 02 00 00 00
 (036.674100)  vcan0  0000014A   [8]  04 77 00 00 00 00 00 00
 (036.674886)  vcan0  0000017C   [8]  C0 00 00 00 00 00 00 00
 (036.675502)  vcan0  000001A3   [8]  00 00 00 00 02 00 00 00
 (036.922971)  vcan0  0000014A   [8]  03 77 00 00 00 00 00 00
 (036.924043)  vcan0  0000017C   [8]  C0 00 00 00 00 00 00 00
 (036.924724)  vcan0  000001A3   [8]  00 00 00 00 02 00 00 00
 (037.170200)  vcan0  0000014A   [8]  04 77 00 00 00 00 00 00
 (037.171012)  vcan0  0000017C   [8]  00 00 00 00 00 00 03 00
 (037.171869)  vcan0  000001A3   [8]  00 00 00 00 02 00 00 00
 (037.412398)  vcan0  0000014A   [8]  04 49 00 00 00 00 00 00
 (037.413094)  vcan0  0000017C   [8]  00 00 00 00 00 00 04 C0
 (037.413646)  vcan0  000001A3   [8]  00 00 00 00 02 00 00 00
 (037.647193)  vcan0  0000014A   [8]  03 49 00 00 00 00 00 00
 (037.648088)  vcan0  0000017C   [8]  00 00 00 00 00 00 01 80
 (037.648713)  vcan0  000001A3   [8]  00 00 00 00 02 00 00 00
 (037.890299)  vcan0  0000014A   [8]  02 49 00 00 00 00 00 00
 (037.891533)  vcan0  0000017C   [8]  BF 00 00 00 00 00 00 00
 (037.892322)  vcan0  000001A3   [8]  00 00 00 00 02 00 00 00
 (038.137543)  vcan0  0000014A   [8]  03 49 00 00 00 00 00 00
 (038.138582)  vcan0  0000017C   [8]  C0 00 00 00 00 00 00 00
 (038.139284)  vcan0  000001A3   [8]  00 00 00 00 02 00 00 00
 (038.403625)  vcan0  0000014A   [8]  02 F0 00 00 00 00 00 00
 (038.404346)  vcan0  0000017C   [8]  C0 00 00 00 00 00 00 00
 (038.404889)  vcan0  000001A3   [8]  00 00 00 00 02 00 00 00
 (038.654639)  vcan0  0000014A   [8]  01 F0 00 00 00 00 00 00
 (038.655452)  vcan0  0000017C   [8]  C0 00 00 00 00 00 00 00
 (038.656142)  vcan0  000001A3   [8]  00 00 00 00 02 00 00 00
 (038.905638)  vcan0  0000014A   [8]  02 F0 00 00 00 00 00 00
 (038.906562)  vcan0  0000017C   [8]  9E 00 00 00 00 00 00 00
 (038.907273)  vcan0  000001A3   [8]  00 00 00 00 02 00 00 00
 (039.159372)  vcan0  0000014A   [8]  02 4F 00 00 00 00 00 00
 (039.160058)  vcan0  0000017C   [8]  00 00 00 00 00 00 04 C0
 (039.160650)  vcan0  000001A3   [8]  00 00 00 00 02 00 00 00
 (039.409795)  vcan0  0000014A   [8]  03 4F 00 00 00 00 00 00
 (039.411089)  vcan0  0000017C   [8]  00 00 00 00 00 00 04 C0
 (039.411871)  vcan0  000001A3   [8]  00 00 00 00 02 00 00 00
 (039.671889)  vcan0  0000014A   [8]  02 4F 00 00 00 00 00 00
 (039.672806)  vcan0  0000017C   [8]  00 00 00 00 00 00 04 C0
 (039.673724)  vcan0  000001A3   [8]  00 00 00 00 02 00 00 00
 (039.925269)  vcan0  0000014A   [8]  01 4F 00 00 00 00 00 00
 (039.941430)  vcan0  0000017C   [8]  00 00 00 00 00 00 04 C0
 (039.946970)  vcan0  000001A3   [8]  00 00 00 00 02 00 00 00
 (040.176099)  vcan0  0000014A   [8]  00 C1 00 00 00 00 00 00
 (040.176794)  vcan0  0000017C   [8]  A9 00 00 00 00 00 00 00
 (040.177489)  vcan0  000001A3   [8]  00 00 00 00 00 00 00 00
 (040.438143)  vcan0  0000014A   [8]  01 C1 00 00 00 00 00 00
 (040.439142)  vcan0  0000017C   [8]  C0 00 00 00 00 00 00 00
 (040.439841)  vcan0  000001A3   [8]  00 00 00 00 00 00 00 00
 (040.693452)  vcan0  0000014A   [8]  01 DA 00 00 00 00 00 00
 (040.695393)  vcan0  0000017C   [8]  C0 00 00 00 00 00 00 00
 (040.696000)  vcan0  000001A3   [8]  00 00 00 00 01 00 00 00
 (040.947030)  vcan0  0000014A   [8]  01 32 00 00 00 00 00 00
 (040.950256)  vcan0  0000017C   [8]  C0 00 00 00 00 00 00 00
 (040.951429)  vcan0  000001A3   [8]  00 00 00 00 01 00 00 00
 (041.200296)  vcan0  0000014A   [8]  01 44 00 00 00 00 00 00
 (041.204234)  vcan0  0000017C   [8]  C0 00 00 00 00 00 00 00
 (041.204927)  vcan0  000001A3   [8]  00 00 00 00 01 00 00 00
 (041.456879)  vcan0  0000014A   [8]  02 44 00 00 00 00 00 00
 (041.462618)  vcan0  0000017C   [8]  C0 00 00 00 00 00 00 00
 (041.472663)  vcan0  000001A3   [8]  00 00 00 00 01 00 00 00
 (041.715509)  vcan0  0000014A   [8]  01 44 00 00 00 00 00 00
 (041.716254)  vcan0  0000017C   [8]  C0 00 00 00 00 00 00 00
 (041.717025)  vcan0  000001A3   [8]  00 00 00 00 01 00 00 00
 (041.975445)  vcan0  0000014A   [8]  00 E5 00 00 00 00 00 00
 (041.976189)  vcan0  0000017C   [8]  C0 00 00 00 00 00 00 00
 (041.976775)  vcan0  000001A3   [8]  00 00 00 00 00 00 00 00
 (042.231534)  vcan0  0000014A   [8]  01 E5 00 00 00 00 00 00
 (042.232364)  vcan0  0000017C   [8]  5B 00 00 00 00 00 00 00
 (042.232938)  vcan0  000001A3   [8]  00 00 00 00 02 00 00 00
 (042.490025)  vcan0  0000014A   [8]  00 EB 00 00 00 00 00 00
 (042.491699)  vcan0  0000017C   [8]  00 00 00 00 00 00 04 C0
 (042.492591)  vcan0  000001A3   [8]  00 00 00 00 02 00 00 00
 (042.755311)  vcan0  0000014A   [8]  00 EB 00 00 00 00 00 00
 (042.756172)  vcan0  0000017C   [8]  00 00 00 00 00 00 04 C0
 (042.757049)  vcan0  000001A3   [8]  00 00 00 00 02 00 00 00
 (043.016238)  vcan0  0000014A   [8]  01 EB 00 00 00 00 00 00
 (043.017199)  vcan0  0000017C   [8]  00 00 00 00 00 00 04 C0
 (043.017998)  vcan0  000001A3   [8]  00 00 00 00 02 00 00 00
 (043.274515)  vcan0  0000014A   [8]  00 EB 00 00 00 00 00 00
 (043.276207)  vcan0  0000017C   [8]  4D 00 00 00 00 00 00 00
 (043.277224)  vcan0  000001A3   [8]  00 00 00 00 02 00 00 00
 (043.532475)  vcan0  0000014A   [8]  00 E0 00 00 00 00 00 00
 (043.533324)  vcan0  0000017C   [8]  C0 00 00 00 00 00 00 00
 (043.534337)  vcan0  000001A3   [8]  00 00 00 00 02 00 00 00
 (043.795636)  vcan0  0000014A   [8]  01 E0 00 00 00 00 00 00
 (043.796382)  vcan0  0000017C   [8]  C0 00 00 00 00 00 00 00
 (043.797211)  vcan0  000001A3   [8]  00 00 00 00 02 00 00 00
 (044.057142)  vcan0  0000014A   [8]  01 88 00 00 00 00 00 00
 (044.058102)  vcan0  0000017C   [8]  C0 00 00 00 00 00 00 00
 (044.058802)  vcan0  000001A3   [8]  00 00 00 00 02 00 00 00
 (044.319248)  vcan0  0000014A   [8]  01 0F 00 00 00 00 00 00
 (044.319923)  vcan0  0000017C   [8]  C0 00 00 00 00 00 00 00
 (044.320505)  vcan0  000001A3   [8]  00 00 00 00 02 00 00 00
 (044.575477)  vcan0  0000014A   [8]  02 0F 00 00 00 00 00 00
 (044.576317)  vcan0  0000017C   [8]  44 00 00 00 00 00 00 00
 (044.576938)  vcan0  000001A3   [8]  00 00 00 00 02 00 00 00
 (044.832781)  vcan0  0000014A   [8]  02 5E 00 00 00 00 00 00
 (044.833466)  vcan0  0000017C   [8]  00 00 00 00 00 00 04 C0
 (044.833978)  vcan0  000001A3   [8]  00 00 00 00 02 00 00 00
 (045.085945)  vcan0  0000014A   [8]  03 5E 00 00 00 00 00 00
 (045.086695)  vcan0  0000017C   [8]  00 00 00 00 00 00 04 C0
 (045.087231)  vcan0  000001A3   [8]  00 00 00 00 02 00 00 00
 (045.339368)  vcan0  0000014A   [8]  02 5E 00 00 00 00 00 00
 (045.340278)  vcan0  0000017C   [8]  AF 00 00 00 00 00 00 00
 (045.340979)  vcan0  000001A3   [8]  00 00 00 00 02 00 00 00
 (045.590749)  vcan0  0000014A   [8]  03 5E 00 00 00 00 00 00
 (045.591761)  vcan0  0000017C   [8]  C0 00 00 00 00 00 00 00
 (045.592350)  vcan0  000001A3   [8]  00 00 00 00 02 00 00 00
 (045.840010)  vcan0  0000014A   [8]  02 5E 00 00 00 00 00 00
 (045.840739)  vcan0  0000017C   [8]  C0 00 00 00 00 00 00 00
 (045.841711)  vcan0  000001A3   [8]  00 00 00 00 02 00 00 00
 (046.094598)  vcan0  0000014A   [8]  01 B0 00 00 00 00 00 00
 (046.095441)  vcan0  0000017C   [8]  C0 00 00 00 00 00 00 00
 (046.096035)  vcan0  000001A3   [8]  00 00 00 00 02 00 00 00
 (046.346595)  vcan0  0000014A   [8]  02 B0 00 00 00 00 00 00
 (046.347361)  vcan0  0000017C   [8]  75 00 00 00 00 00 00 00
 (046.357382)  vcan0  000001A3   [8]  00 00 00 00 02 00 00 00
 (046.592916)  vcan0  0000014A   [8]  03 B0 00 00 00 00 00 00
 (046.596722)  vcan0  0000017C   [8]  00 00 00 00 00 00 04 C0
 (046.604843)  vcan0  000001A3   [8]  00 00 00 00 02 00 00 00
 (046.843170)  vcan0  0000014A   [8]  04 B0 00 00 00 00 00 00
 (046.843858)  vcan0  0000017C   [8]  00 00 00 00 00 00 04 C0
 (046.845357)  vcan0  000001A3   [8]  00 00 00 00 02 00 00 00
 (047.092739)  vcan0  0000014A   [8]  03 B0 00 00 00 00 00 00
 (047.093543)  vcan0  0000017C   [8]  C0 00 00 00 00 00 00 00
 (047.094126)  vcan0  000001A3   [8]  00 00 00 00 02 00 00 00
 (047.337841)  vcan0  0000014A   [8]  04 B0 00 00 00 00 00 00
 (047.338729)  vcan0  0000017C   [8]  C0 00 00 00 00 00 00 00
 (047.339296)  vcan0  000001A3   [8]  00 00 00 00 02 00 00 00
 (047.582123)  vcan0  0000014A   [8]  03 B0 00 00 00 00 00 00
 (047.583011)  vcan0  0000017C   [8]  C0 00 00 00 00 00 00 00
 (047.583665)  vcan0  000001A3   [8]  00 00 00 00 02 00 00 00
 (047.832779)  vcan0  0000014A   [8]  02 B0 00 00 00 00 00 00
 (047.833676)  vcan0  0000017C   [8]  C0 00 00 00 00 00 00 00
 (047.834326)  vcan0  000001A3   [8]  00 00 00 00 02 00 00 00
 (048.086308)  vcan0  0000014A   [8]  03 B0 00 00 00 00 00 00
 (048.087630)  vcan0  0000017C   [8]  C0 00 00 00 00 00 00 00
 (048.088227)  vcan0  000001A3   [8]  00 00 00 00 02 00 00 00
 (048.343114)  vcan0  0000014A   [8]  04 B0 00 00 00 00 00 00
 (048.348585)  vcan0  0000017C   [8]  C0 00 00 00 00 00 00 00
 (048.349504)  vcan0  000001A3   [8]  00 00 00 00 02 00 00 00
 (048.604253)  vcan0  0000014A   [8]  03 E7 00 00 00 00 00 00
 (048.604851)  vcan0  0000017C   [8]  19 00 00 00 00 00 00 00
 (048.605216)  vcan0  000001A3   [8]  00 00 00 00 02 00 00 00
 (048.858661)  vcan0  0000014A   [8]  04 E7 00 00 00 00 00 00
 (048.859956)  vcan0  0000017C   [8]  00 00 00 00 00 00 04 C0
 (048.862138)  vcan0  000001A3   [8]  00 00 00 00 02 00 00 00
 (049.110369)  vcan0  0000014A   [8]  04 EA 00 00 00 00 00 00
 (049.111229)  vcan0  0000017C   [8]  00 00 00 00 00 00 04 C0
 (049.111871)  vcan0  000001A3   [8]  00 00 00 00 02 00 00 00
 (049.363445)  vcan0  0000014A   [8]  03 EA 00 00 00 00 00 00
 (049.363822)  vcan0  0000017C   [8]  C0 00 00 00 00 00 00 00
 (049.364209)  vcan0  000001A3   [8]  00 00 00 00 02 00 00 00
 (049.625836)  vcan0  0000014A   [8]  02 EA 00 00 00 00 00 00
 (049.626424)  vcan0  0000017C   [8]  C0 00 00 00 00 00 00 00
 (049.626925)  vcan0  000001A3   [8]  00 00 00 00 02 00 00 00
 (049.887385)  vcan0  0000014A   [8]  01 EA 00 00 00 00 00 00
 (049.888028)  vcan0  0000017C   [8]  C0 00 00 00 00 00 00 00
 (049.888493)  vcan0  000001A3   [8]  00 00 00 00 02 00 00 00
 (050.143446)  vcan0  0000014A   [8]  02 EA 00 00 00 00 00 00
 (050.144118)  vcan0  0000017C   [8]  C0 00 00 00 00 00 00 00
 (050.144639)  vcan0  000001A3   [8]  00 00 00 00 02 00 00 00
 (050.399417)  vcan0  0000014A   [8]  03 0C 00 00 00 00 00 00
 (050.400046)  vcan0  0000017C   [8]  C0 00 00 00 00 00 00 00
 (050.400435)  vcan0  000001A3   [8]  00 00 00 00 02 00 00 00
 (050.653700)  vcan0  0000014A   [8]  04 0C 00 00 00 00 00 00
 (050.654274)  vcan0  0000017C   [8]  00 00 00 00 00 00 04 C0
 (050.654670)  vcan0  000001A3   [8]  00 00 00 00 02 00 00 00
 (050.912039)  vcan0  0000014A   [8]  03 0C 00 00 00 00 00 00
 (050.912586)  vcan0  0000017C   [8]  00 00 00 00 00 00 04 C0
 (050.912968)  vcan0  000001A3   [8]  00 00 00 00 02 00 00 00
 (051.172767)  vcan0  0000014A   [8]  02 0C 00 00 00 00 00 00
 (051.173336)  vcan0  0000017C   [8]  00 00 00 00 00 00 04 C0
 (051.173882)  vcan0  000001A3   [8]  00 00 00 00 02 00 00 00
 (051.429059)  vcan0  0000014A   [8]  01 89 00 00 00 00 00 00
 (051.429557)  vcan0  0000017C   [8]  B6 00 00 00 00 00 00 00
 (051.429960)  vcan0  000001A3   [8]  00 00 00 00 02 00 00 00
 (051.690117)  vcan0  0000014A   [8]  00 89 00 00 00 00 00 00
 (051.691053)  vcan0  0000017C   [8]  C0 00 00 00 00 00 00 00
 (051.691637)  vcan0  000001A3   [8]  00 00 00 00 02 00 00 00
 (051.949961)  vcan0  0000014A   [8]  01 46 00 00 00 00 00 00
 (051.951030)  vcan0  0000017C   [8]  C0 00 00 00 00 00 00 00
 (051.951563)  vcan0  000001A3   [8]  00 00 00 00 02 00 00 00
 (052.217108)  vcan0  0000014A   [8]  02 46 00 00 00 00 00 00
 (052.217781)  vcan0  0000017C   [8]  C0 00 00 00 00 00 00 00
 (052.218919)  vcan0  000001A3   [8]  00 00 00 00 02 00 00 00
 (052.473314)  vcan0  0000014A   [8]  01 46 00 00 00 00 00 00
 (052.474126)  vcan0  0000017C   [8]  C0 00 00 00 00 00 00 00
 (052.474843)  vcan0  000001A3   [8]  00 00 00 00 02 00 00 00
 (052.735297)  vcan0  0000014A   [8]  01 B9 00 00 00 00 00 00
 (052.736029)  vcan0  0000017C   [8]  00 00 00 00 00 00 04 C0
 (052.736651)  vcan0  000001A3   [8]  00 00 00 00 02 00 00 00
 (052.999865)  vcan0  0000014A   [8]  00 B9 00 00 00 00 00 00
 (053.000671)  vcan0  0000017C   [8]  00 00 00 00 00 00 04 C0
 (053.001683)  vcan0  000001A3   [8]  00 00 00 00 02 00 00 00
 (053.264297)  vcan0  0000014A   [8]  01 0C 00 00 00 00 00 00
 (053.266606)  vcan0  0000017C   [8]  00 00 00 00 00 00 04 C0
 (053.267206)  vcan0  000001A3   [8]  00 00 00 00 02 00 00 00
 (053.524640)  vcan0  0000014A   [8]  02 0C 00 00 00 00 00 00
 (053.525530)  vcan0  0000017C   [8]  A2 00 00 00 00 00 00 00
 (053.526084)  vcan0  000001A3   [8]  00 00 00 00 02 00 00 00
 (053.787180)  vcan0  0000014A   [8]  01 0C 00 00 00 00 00 00
 (053.787831)  vcan0  0000017C   [8]  C0 00 00 00 00 00 00 00
 (053.788388)  vcan0  000001A3   [8]  00 00 00 00 02 00 00 00
 (054.041428)  vcan0  0000014A   [8]  00 B6 00 00 00 00 00 00
 (054.042354)  vcan0  0000017C   [8]  C0 00 00 00 00 00 00 00
 (054.042998)  vcan0  000001A3   [8]  00 00 00 00 02 00 00 00
 (054.301337)  vcan0  0000014A   [8]  01 B6 00 00 00 00 00 00
 (054.302048)  vcan0  0000017C   [8]  C0 00 00 00 00 00 00 00
 (054.302697)  vcan0  000001A3   [8]  00 00 00 00 02 00 00 00
 (054.557190)  vcan0  0000014A   [8]  01 08 00 00 00 00 00 00
 (054.557936)  vcan0  0000017C   [8]  C0 00 00 00 00 00 00 00
 (054.558653)  vcan0  000001A3   [8]  00 00 00 00 02 00 00 00
 (054.808243)  vcan0  0000014A   [8]  01 58 00 00 00 00 00 00
 (054.809266)  vcan0  0000017C   [8]  00 00 00 00 00 00 04 C0
 (054.809855)  vcan0  000001A3   [8]  00 00 00 00 02 00 00 00
 (055.058547)  vcan0  0000014A   [8]  00 EE 00 00 00 00 00 00
 (055.059666)  vcan0  0000017C   [8]  00 00 00 00 00 00 04 C0
 (055.060448)  vcan0  000001A3   [8]  00 00 00 00 02 00 00 00
 (055.310691)  vcan0  0000014A   [8]  01 09 00 00 00 00 00 00
 (055.311568)  vcan0  0000017C   [8]  00 00 00 00 00 00 04 C0
 (055.312171)  vcan0  000001A3   [8]  00 00 00 00 02 00 00 00
 (055.561975)  vcan0  0000014A   [8]  01 78 00 00 00 00 00 00
 (055.572437)  vcan0  0000017C   [8]  8C 00 00 00 00 00 00 00
 (055.586056)  vcan0  000001A3   [8]  00 00 00 00 02 00 00 00
 (055.817756)  vcan0  0000014A   [8]  00 DD 00 00 00 00 00 00
 (055.818649)  vcan0  0000017C   [8]  C0 00 00 00 00 00 00 00
 (055.819298)  vcan0  000001A3   [8]  00 00 00 00 02 00 00 00
 (056.072635)  vcan0  0000014A   [8]  00 FB 00 00 00 00 00 00
 (056.076283)  vcan0  0000017C   [8]  C0 00 00 00 00 00 00 00
 (056.078489)  vcan0  000001A3   [8]  00 00 00 00 02 00 00 00
 (056.327410)  vcan0  0000014A   [8]  01 65 00 00 00 00 00 00
 (056.328287)  vcan0  0000017C   [8]  C0 00 00 00 00 00 00 00
 (056.328919)  vcan0  000001A3   [8]  00 00 00 00 02 00 00 00
 (056.581071)  vcan0  0000014A   [8]  00 D8 00 00 00 00 00 00
 (056.581835)  vcan0  0000017C   [8]  AC 00 00 00 00 00 00 00
 (056.582541)  vcan0  000001A3   [8]  00 00 00 00 02 00 00 00
 (056.843913)  vcan0  0000014A   [8]  01 2D 00 00 00 00 00 00
 (056.844744)  vcan0  0000017C   [8]  00 00 00 00 00 00 04 C0
 (056.845414)  vcan0  000001A3   [8]  00 00 00 00 02 00 00 00
 (057.100686)  vcan0  0000014A   [8]  01 03 00 00 00 00 00 00
 (057.101856)  vcan0  0000017C   [8]  00 00 00 00 00 00 04 C0
 (057.102618)  vcan0  000001A3   [8]  00 00 00 00 02 00 00 00
 (057.363139)  vcan0  0000014A   [8]  00 F8 00 00 00 00 00 00
 (057.363914)  vcan0  0000017C   [8]  00 00 00 00 00 00 03 C0
 (057.364499)  vcan0  000001A3   [8]  00 00 00 00 02 00 00 00
 (057.621730)  vcan0  0000014A   [8]  01 2E 00 00 00 00 00 00
 (057.622756)  vcan0  0000017C   [8]  C0 00 00 00 00 00 00 00
 (057.623549)  vcan0  000001A3   [8]  00 00 00 00 02 00 00 00
 (057.879604)  vcan0  0000014A   [8]  00 F5 00 00 00 00 00 00
 (057.880542)  vcan0  0000017C   [8]  C0 00 00 00 00 00 00 00
 (057.881402)  vcan0  000001A3   [8]  00 00 00 00 02 00 00 00
 (058.136048)  vcan0  0000014A   [8]  00 FC 00 00 00 00 00 00
 (058.137180)  vcan0  0000017C   [8]  C0 00 00 00 00 00 00 00
 (058.138301)  vcan0  000001A3   [8]  00 00 00 00 02 00 00 00
 (058.395257)  vcan0  0000014A   [8]  01 27 00 00 00 00 00 00
 (058.396233)  vcan0  0000017C   [8]  C0 00 00 00 00 00 00 00
 (058.397014)  vcan0  000001A3   [8]  00 00 00 00 02 00 00 00
 (058.649920)  vcan0  0000014A   [8]  00 F1 00 00 00 00 00 00
 (058.650767)  vcan0  0000017C   [8]  C0 00 00 00 00 00 00 00
 (058.651446)  vcan0  000001A3   [8]  00 00 00 00 02 00 00 00
 (058.909172)  vcan0  0000014A   [8]  01 00 00 00 00 00 00 00
 (058.910043)  vcan0  0000017C   [8]  00 00 00 00 00 00 04 C0
 (058.910709)  vcan0  000001A3   [8]  00 00 00 00 02 00 00 00
 (059.161321)  vcan0  0000014A   [8]  01 1F 00 00 00 00 00 00
 (059.162235)  vcan0  0000017C   [8]  00 00 00 00 00 00 04 C0
 (059.162980)  vcan0  000001A3   [8]  00 00 00 00 02 00 00 00
 (059.411795)  vcan0  0000014A   [8]  00 F3 00 00 00 00 00 00
 (059.412711)  vcan0  0000017C   [8]  00 00 00 00 00 00 04 C0
 (059.413594)  vcan0  000001A3   [8]  00 00 00 00 02 00 00 00
 (059.664284)  vcan0  0000014A   [8]  01 0A 00 00 00 00 00 00
 (059.665017)  vcan0  0000017C   [8]  B0 00 00 00 00 00 00 00
 (059.665593)  vcan0  000001A3   [8]  00 00 00 00 02 00 00 00
 (059.918956)  vcan0  0000014A   [8]  01 03 00 00 00 00 00 00
 (059.919618)  vcan0  0000017C   [8]  C0 00 00 00 00 00 00 00
 (059.920118)  vcan0  000001A3   [8]  00 00 00 00 02 00 00 00
 (060.176103)  vcan0  0000014A   [8]  00 FE 00 00 00 00 00 00
 (060.188092)  vcan0  0000017C   [8]  C0 00 00 00 00 00 00 00
 (060.192707)  vcan0  000001A3   [8]  00 00 00 00 02 00 00 00
 (060.427556)  vcan0  0000014A   [8]  01 0D 00 00 00 00 00 00
 (060.428247)  vcan0  0000017C   [8]  C0 00 00 00 00 00 00 00
 (060.428840)  vcan0  000001A3   [8]  00 00 00 00 02 00 00 00
 (060.673631)  vcan0  0000014A   [8]  00 FB 00 00 00 00 00 00
 (060.674366)  vcan0  0000017C   [8]  B5 00 00 00 00 00 00 00
 (060.675108)  vcan0  000001A3   [8]  00 00 00 00 02 00 00 00
 (060.923280)  vcan0  0000014A   [8]  01 00 00 00 00 00 00 00
 (060.923974)  vcan0  0000017C   [8]  00 00 00 00 00 00 04 C0
 (060.924499)  vcan0  000001A3   [8]  00 00 00 00 02 00 00 00
 (061.168888)  vcan0  0000014A   [8]  01 0C 00 00 00 00 00 00
 (061.169760)  vcan0  0000017C   [8]  00 00 00 00 00 00 04 C0
 (061.170356)  vcan0  000001A3   [8]  00 00 00 00 02 00 00 00
 (061.412981)  vcan0  0000014A   [8]  00 FB 00 00 00 00 00 00
 (061.413645)  vcan0  0000017C   [8]  00 00 00 00 00 00 04 C0
 (061.414246)  vcan0  000001A3   [8]  00 00 00 00 02 00 00 00
 (061.652664)  vcan0  0000014A   [8]  00 FF 00 00 00 00 00 00
 (061.653400)  vcan0  0000017C   [8]  BB 00 00 00 00 00 00 00
 (061.654103)  vcan0  000001A3   [8]  00 00 00 00 02 00 00 00
 (061.897032)  vcan0  0000014A   [8]  01 09 00 00 00 00 00 00
 (061.897876)  vcan0  0000017C   [8]  C0 00 00 00 00 00 00 00
 (061.898529)  vcan0  000001A3   [8]  00 00 00 00 02 00 00 00
 (062.147465)  vcan0  0000014A   [8]  00 FD 00 00 00 00 00 00
 (062.148337)  vcan0  0000017C   [8]  C0 00 00 00 00 00 00 00
 (062.148969)  vcan0  000001A3   [8]  00 00 00 00 02 00 00 00
 (062.396081)  vcan0  0000014A   [8]  00 FF 00 00 00 00 00 00
 (062.396753)  vcan0  0000017C   [8]  C0 00 00 00 00 00 00 00
 (062.397429)  vcan0  000001A3   [8]  00 00 00 00 02 00 00 00
 (062.642052)  vcan0  0000014A   [8]  01 07 00 00 00 00 00 00
 (062.642901)  vcan0  0000017C   [8]  C0 00 00 00 00 00 00 00
 (062.643472)  vcan0  000001A3   [8]  00 00 00 00 02 00 00 00
 (062.885105)  vcan0  0000014A   [8]  00 FD 00 00 00 00 00 00
 (062.886101)  vcan0  0000017C   [8]  00 00 00 00 00 00 04 C0
 (062.886774)  vcan0  000001A3   [8]  00 00 00 00 02 00 00 00
 (063.127815)  vcan0  0000014A   [8]  01 03 00 00 00 00 00 00
 (063.128546)  vcan0  0000017C   [8]  00 00 00 00 00 00 04 C0
 (063.129396)  vcan0  000001A3   [8]  00 00 00 00 02 00 00 00
 (063.372414)  vcan0  0000014A   [8]  01 01 00 00 00 00 00 00
 (063.373258)  vcan0  0000017C   [8]  00 00 00 00 00 00 04 C0
 (063.373858)  vcan0  000001A3   [8]  00 00 00 00 02 00 00 00
 (063.612367)  vcan0  0000014A   [8]  00 FF 00 00 00 00 00 00
 (063.613311)  vcan0  0000017C   [8]  95 00 00 00 00 00 00 00
 (063.613918)  vcan0  000001A3   [8]  00 00 00 00 02 00 00 00
 (063.849403)  vcan0  0000014A   [8]  01 03 00 00 00 00 00 00
 (063.850411)  vcan0  0000017C   [8]  C0 00 00 00 00 00 00 00
 (063.851504)  vcan0  000001A3   [8]  00 00 00 00 02 00 00 00
 (064.085731)  vcan0  0000014A   [8]  00 FF 00 00 00 00 00 00
 (064.086681)  vcan0  0000017C   [8]  C0 00 00 00 00 00 00 00
 (064.087315)  vcan0  000001A3   [8]  00 00 00 00 02 00 00 00
 (064.323686)  vcan0  0000014A   [8]  01 00 00 00 00 00 00 00
 (064.324446)  vcan0  0000017C   [8]  C0 00 00 00 00 00 00 00
 (064.325365)  vcan0  000001A3   [8]  00 00 00 00 02 00 00 00
 (064.560586)  vcan0  0000014A   [8]  01 03 00 00 00 00 00 00
 (064.561666)  vcan0  0000017C   [8]  A0 00 00 00 00 00 00 00
 (064.562425)  vcan0  000001A3   [8]  00 00 00 00 02 00 00 00
 (064.795201)  vcan0  0000014A   [8]  00 FF 00 00 00 00 00 00
 (064.795940)  vcan0  0000017C   [8]  00 00 00 00 00 00 04 C0
 (064.796508)  vcan0  000001A3   [8]  00 00 00 00 02 00 00 00
 (065.035231)  vcan0  0000014A   [8]  01 01 00 00 00 00 00 00
 (065.036129)  vcan0  0000017C   [8]  00 00 00 00 00 00 04 C0
 (065.036772)  vcan0  000001A3   [8]  00 00 00 00 02 00 00 00
 (065.272358)  vcan0  0000014A   [8]  01 00 00 00 00 00 00 00
 (065.273011)  vcan0  0000017C   [8]  00 00 00 00 00 00 01 80
 (065.273585)  vcan0  000001A3   [8]  00 00 00 00 02 00 00 00
 (065.512905)  vcan0  0000014A   [8]  01 00 00 00 00 00 00 00
 (065.513839)  vcan0  0000017C   [8]  C0 00 00 00 00 00 00 00
 (065.514542)  vcan0  000001A3   [8]  00 00 00 00 02 00 00 00
 (065.753222)  vcan0  0000014A   [8]  01 01 00 00 00 00 00 00
 (065.753872)  vcan0  0000017C   [8]  C0 00 00 00 00 00 00 00
 (065.754558)  vcan0  000001A3   [8]  00 00 00 00 02 00 00 00
 (065.994476)  vcan0  0000014A   [8]  01 00 00 00 00 00 00 00
 (065.995257)  vcan0  0000017C   [8]  C0 00 00 00 00 00 00 00
 (065.995865)  vcan0  000001A3   [8]  00 00 00 00 02 00 00 00
 (066.232680)  vcan0  0000014A   [8]  01 00 00 00 00 00 00 00
 (066.233567)  vcan0  0000017C   [8]  C0 00 00 00 00 00 00 00
 (066.234340)  vcan0  000001A3   [8]  00 00 00 00 02 00 00 00
 (066.471498)  vcan0  0000014A   [8]  01 01 00 00 00 00 00 00
 (066.472209)  vcan0  0000017C   [8]  C0 00 00 00 00 00 00 00
 (066.472780)  vcan0  000001A3   [8]  00 00 00 00 02 00 00 00
 (066.708338)  vcan0  0000014A   [8]  01 00 00 00 00 00 00 00
 (066.709063)  vcan0  0000017C   [8]  00 00 00 00 00 00 04 C0
 (066.709596)  vcan0  000001A3   [8]  00 00 00 00 02 00 00 00
 (066.946884)  vcan0  0000014A   [8]  01 00 00 00 00 00 00 00
 (066.947605)  vcan0  0000017C   [8]  00 00 00 00 00 00 04 C0
 (066.948221)  vcan0  000001A3   [8]  00 00 00 00 02 00 00 00
 (067.185716)  vcan0  0000014A   [8]  01 00 00 00 00 00 00 00
 (067.187440)  vcan0  0000017C   [8]  00 00 00 00 00 00 04 C0
 (067.196292)  vcan0  000001A3   [8]  00 00 00 00 02 00 00 00
 (067.422026)  vcan0  0000014A   [8]  01 00 00 00 00 00 00 00
 (067.423030)  vcan0  0000017C   [8]  00 00 00 00 00 00 04 C0
 (067.423734)  vcan0  000001A3   [8]  00 00 00 00 02 00 00 00
 (067.664176)  vcan0  0000014A   [8]  01 00 00 00 00 00 00 00
 (067.665204)  vcan0  0000017C   [8]  03 00 00 00 00 00 00 00
 (067.665897)  vcan0  000001A3   [8]  00 00 00 00 02 00 00 00
 (067.906227)  vcan0  0000014A   [8]  01 00 00 00 00 00 00 00
 (067.907187)  vcan0  0000017C   [8]  92 00 00 00 00 00 00 00
 (067.908203)  vcan0  000001A3   [8]  00 00 00 00 00 00 00 00
 (068.150710)  vcan0  0000014A   [8]  01 00 00 00 00 00 00 00
 (068.151572)  vcan0  0000017C   [8]  C0 00 00 00 00 00 00 00
 (068.152318)  vcan0  000001A3   [8]  00 00 00 00 01 00 00 00
 (068.391914)  vcan0  0000014A   [8]  01 00 00 00 00 00 00 00
 (068.392757)  vcan0  0000017C   [8]  C0 00 00 00 00 00 00 00
 (068.393346)  vcan0  000001A3   [8]  00 00 00 00 01 00 00 00
 (068.630808)  vcan0  0000014A   [8]  01 00 00 00 00 00 00 00
 (068.631701)  vcan0  0000017C   [8]  C0 00 00 00 00 00 00 00
 (068.632432)  vcan0  000001A3   [8]  00 00 00 00 01 00 00 00
 (068.869082)  vcan0  0000014A   [8]  01 81 00 00 00 00 00 00
 (068.869752)  vcan0  0000017C   [8]  C0 00 00 00 00 00 00 00
 (068.870316)  vcan0  000001A3   [8]  00 00 00 00 01 00 00 00
 (069.108107)  vcan0  0000014A   [8]  00 C8 00 00 00 00 00 00
 (069.108993)  vcan0  0000017C   [8]  C0 00 00 00 00 00 00 00
 (069.110871)  vcan0  000001A3   [8]  00 00 00 00 01 00 00 00
 (069.343773)  vcan0  0000014A   [8]  00 FB 00 00 00 00 00 00
 (069.344816)  vcan0  0000017C   [8]  C0 00 00 00 00 00 00 00
 (069.349653)  vcan0  000001A3   [8]  00 00 00 00 00 00 00 00
 (069.582006)  vcan0  0000014A   [8]  01 FB 00 00 00 00 00 00
 (069.583027)  vcan0  0000017C   [8]  C0 00 00 00 00 00 00 00
 (069.583692)  vcan0  000001A3   [8]  00 00 00 00 02 00 00 00
 (069.816135)  vcan0  0000014A   [8]  00 FB 00 00 00 00 00 00
 (069.817052)  vcan0  0000017C   [8]  00 00 00 00 00 00 04 C0
 (069.817636)  vcan0  000001A3   [8]  00 00 00 00 02 00 00 00
 (070.050282)  vcan0  0000014A   [8]  01 FB 00 00 00 00 00 00
 (070.051957)  vcan0  0000017C   [8]  00 00 00 00 00 00 04 C0
 (070.052592)  vcan0  000001A3   [8]  00 00 00 00 02 00 00 00
 (070.284951)  vcan0  0000014A   [8]  01 93 00 00 00 00 00 00
 (070.285976)  vcan0  0000017C   [8]  00 00 00 00 00 00 04 C0
 (070.286735)  vcan0  000001A3   [8]  00 00 00 00 02 00 00 00
 (070.517136)  vcan0  0000014A   [8]  02 93 00 00 00 00 00 00
 (070.518971)  vcan0  0000017C   [8]  00 00 00 00 00 00 04 C0
 (070.519649)  vcan0  000001A3   [8]  00 00 00 00 02 00 00 00
 (070.736642)  vcan0  0000014A   [8]  01 A1 00 00 00 00 00 00
 (070.737408)  vcan0  0000017C   [8]  C0 00 00 00 00 00 00 00
 (070.738109)  vcan0  000001A3   [8]  00 00 00 00 00 00 00 00
 (070.959350)  vcan0  0000014A   [8]  01 45 00 00 00 00 00 00
 (070.960253)  vcan0  0000017C   [8]  C0 00 00 00 00 00 00 00
 (070.960938)  vcan0  000001A3   [8]  00 00 00 00 01 00 00 00
 (071.182901)  vcan0  0000014A   [8]  01 9C 00 00 00 00 00 00
 (071.183799)  vcan0  0000017C   [8]  C0 00 00 00 00 00 00 00
 (071.184448)  vcan0  000001A3   [8]  00 00 00 00 01 00 00 00
 (071.406162)  vcan0  0000014A   [8]  02 9C 00 00 00 00 00 00
 (071.407139)  vcan0  0000017C   [8]  C0 00 00 00 00 00 00 00
 (071.407806)  vcan0  000001A3   [8]  00 00 00 00 01 00 00 00
 (071.629256)  vcan0  0000014A   [8]  02 2D 00 00 00 00 00 00
 (071.630046)  vcan0  0000017C   [8]  C0 00 00 00 00 00 00 00
 (071.630733)  vcan0  000001A3   [8]  00 00 00 00 01 00 00 00
 (071.851896)  vcan0  0000014A   [8]  01 7E 00 00 00 00 00 00
 (071.852532)  vcan0  0000017C   [8]  C0 00 00 00 00 00 00 00
 (071.853103)  vcan0  000001A3   [8]  00 00 00 00 01 00 00 00
 (072.071594)  vcan0  0000014A   [8]  02 7E 00 00 00 00 00 00
 (072.072746)  vcan0  0000017C   [8]  C0 00 00 00 00 00 00 00
 (072.073475)  vcan0  000001A3   [8]  00 00 00 00 00 00 00 00
 (072.284457)  vcan0  0000014A   [8]  02 E5 00 00 00 00 00 00
 (072.285206)  vcan0  0000017C   [8]  C0 00 00 00 00 00 00 00
 (072.285825)  vcan0  000001A3   [8]  00 00 00 00 02 00 00 00
 (072.495895)  vcan0  0000014A   [8]  03 E5 00 00 00 00 00 00
 (072.496704)  vcan0  0000017C   [8]  00 00 00 00 00 00 01 80
 (072.497337)  vcan0  000001A3   [8]  00 00 00 00 02 00 00 00
 (072.708982)  vcan0  0000014A   [8]  02 E5 00 00 00 00 00 00
 (072.709761)  vcan0  0000017C   [8]  00 00 00 00 00 00 04 C0
 (072.710336)  vcan0  000001A3   [8]  00 00 00 00 02 00 00 00
 (072.919224)  vcan0  0000014A   [8]  03 E5 00 00 00 00 00 00
 (072.920146)  vcan0  0000017C   [8]  00 00 00 00 00 00 04 C0
 (072.920882)  vcan0  000001A3   [8]  00 00 00 00 02 00 00 00
 (073.126072)  vcan0  0000014A   [8]  02 E5 00 00 00 00 00 00
 (073.127230)  vcan0  0000017C   [8]  00 00 00 00 00 00 01 80
 (073.134806)  vcan0  000001A3   [8]  00 00 00 00 02 00 00 00
 (073.325599)  vcan0  0000014A   [8]  01 E5 00 00 00 00 00 00
 (073.326515)  vcan0  0000017C   [8]  C0 00 00 00 00 00 00 00
 (073.327196)  vcan0  000001A3   [8]  00 00 00 00 02 00 00 00
 (073.531838)  vcan0  0000014A   [8]  02 E5 00 00 00 00 00 00
 (073.532636)  vcan0  0000017C   [8]  C0 00 00 00 00 00 00 00
 (073.533614)  vcan0  000001A3   [8]  00 00 00 00 00 00 00 00
 (073.729416)  vcan0  0000014A   [8]  01 E5 00 00 00 00 00 00
 (073.730286)  vcan0  0000017C   [8]  C0 00 00 00 00 00 00 00
 (073.731166)  vcan0  000001A3   [8]  00 00 00 00 01 00 00 00
 (073.929150)  vcan0  0000014A   [8]  01 76 00 00 00 00 00 00
 (073.929973)  vcan0  0000017C   [8]  C0 00 00 00 00 00 00 00
 (073.930849)  vcan0  000001A3   [8]  00 00 00 00 01 00 00 00
 (074.134228)  vcan0  0000014A   [8]  02 76 00 00 00 00 00 00
 (074.135140)  vcan0  0000017C   [8]  C0 00 00 00 00 00 00 00
 (074.135742)  vcan0  000001A3   [8]  00 00 00 00 01 00 00 00
 (074.339414)  vcan0  0000014A   [8]  03 76 00 00 00 00 00 00
 (074.341192)  vcan0  0000017C   [8]  C0 00 00 00 00 00 00 00
 (074.346157)  vcan0  000001A3   [8]  00 00 00 00 01 00 00 00
 (074.531144)  vcan0  0000014A   [8]  02 BD 00 00 00 00 00 00
 (074.531770)  vcan0  0000017C   [8]  C0 00 00 00 00 00 00 00
 (074.532414)  vcan0  000001A3   [8]  00 00 00 00 01 00 00 00
 (074.727645)  vcan0  0000014A   [8]  03 BD 00 00 00 00 00 00
 (074.728347)  vcan0  0000017C   [8]  C0 00 00 00 00 00 00 00
 (074.728954)  vcan0  000001A3   [8]  00 00 00 00 00 00 00 00
 (074.927423)  vcan0  0000014A   [8]  04 BD 00 00 00 00 00 00
 (074.928075)  vcan0  0000017C   [8]  C0 00 00 00 00 00 00 00
 (074.929350)  vcan0  000001A3   [8]  00 00 00 00 02 00 00 00
 (075.132566)  vcan0  0000014A   [8]  04 9A 00 00 00 00 00 00
 (075.134443)  vcan0  0000017C   [8]  93 00 00 00 00 00 00 00
 (075.136042)  vcan0  000001A3   [8]  00 00 00 00 02 00 00 00
 (075.337774)  vcan0  0000014A   [8]  05 9A 00 00 00 00 00 00
 (075.339240)  vcan0  0000017C   [8]  00 00 00 00 00 00 04 C0
 (075.339810)  vcan0  000001A3   [8]  00 00 00 00 02 00 00 00
 (075.536049)  vcan0  0000014A   [8]  04 9A 00 00 00 00 00 00
 (075.536952)  vcan0  0000017C   [8]  00 00 00 00 00 00 04 C0
 (075.537563)  vcan0  000001A3   [8]  00 00 00 00 02 00 00 00
 (075.738632)  vcan0  0000014A   [8]  03 9A 00 00 00 00 00 00
 (075.739367)  vcan0  0000017C   [8]  09 00 00 00 00 00 00 00
 (075.739937)  vcan0  000001A3   [8]  00 00 00 00 02 00 00 00
 (075.946281)  vcan0  0000014A   [8]  02 9A 00 00 00 00 00 00
 (075.947148)  vcan0  0000017C   [8]  C0 00 00 00 00 00 00 00
 (075.947912)  vcan0  000001A3   [8]  00 00 00 00 02 00 00 00
 (076.161496)  vcan0  0000014A   [8]  01 9A 00 00 00 00 00 00
 (076.167364)  vcan0  0000017C   [8]  00 00 00 00 00 00 02 80
 (076.168139)  vcan0  000001A3   [8]  00 00 00 00 02 00 00 00
 (076.366647)  vcan0  0000014A   [8]  00 9A 00 00 00 00 00 00
 (076.367362)  vcan0  0000017C   [8]  82 00 00 00 00 00 00 00
 (076.367939)  vcan0  000001A3   [8]  00 00 00 00 02 00 00 00
 (076.576406)  vcan0  0000014A   [8]  FF 9A 00 00 00 00 00 00
 (076.577213)  vcan0  0000017C   [8]  C0 00 00 00 00 00 00 00
 (076.577896)  vcan0  000001A3   [8]  00 00 00 00 02 00 00 00
 (076.788749)  vcan0  0000014A   [8]  FF C8 00 00 00 00 00 00
 (076.789638)  vcan0  0000017C   [8]  C0 00 00 00 00 00 00 00
 (076.790237)  vcan0  000001A3   [8]  00 00 00 00 02 00 00 00
 (077.002058)  vcan0  0000014A   [8]  00 C2 00 00 00 00 00 00
 (077.002856)  vcan0  0000017C   [8]  C0 00 00 00 00 00 00 00
 (077.003445)  vcan0  000001A3   [8]  00 00 00 00 02 00 00 00
 (077.210496)  vcan0  0000014A   [8]  00 8A 00 00 00 00 00 00
 (077.211372)  vcan0  0000017C   [8]  00 00 00 00 00 00 03 C0
 (077.213098)  vcan0  000001A3   [8]  00 00 00 00 02 00 00 00
 (077.419813)  vcan0  0000014A   [8]  00 87 00 00 00 00 00 00
 (077.420612)  vcan0  0000017C   [8]  00 00 00 00 00 00 04 C0
 (077.421309)  vcan0  000001A3   [8]  00 00 00 00 02 00 00 00
 (077.627148)  vcan0  0000014A   [8]  00 D1 00 00 00 00 00 00
 (077.628011)  vcan0  0000017C   [8]  00 00 00 00 00 00 04 00
 (077.628946)  vcan0  000001A3   [8]  00 00 00 00 02 00 00 00
 (077.832218)  vcan0  0000014A   [8]  00 CF 00 00 00 00 00 00
 (077.832968)  vcan0  0000017C   [8]  C0 00 00 00 00 00 00 00
 (077.833630)  vcan0  000001A3   [8]  00 00 00 00 02 00 00 00
 (078.035213)  vcan0  0000014A   [8]  01 00 00 00 00 00 00 00
 (078.036050)  vcan0  0000017C   [8]  00 00 00 00 00 00 08 00
 (078.036709)  vcan0  000001A3   [8]  00 00 00 00 02 00 00 00
 (078.240269)  vcan0  0000014A   [8]  01 00 00 00 00 00 00 00
 (078.241320)  vcan0  0000017C   [8]  00 00 00 00 00 00 08 00
 (078.242214)  vcan0  000001A3   [8]  00 00 00 00 02 00 00 00
 (078.449709)  vcan0  0000014A   [8]  01 00 00 00 00 00 00 00
 (078.451000)  vcan0  0000017C   [8]  00 00 00 00 00 00 08 00
 (078.451772)  vcan0  000001A3   [8]  00 00 00 00 00 00 00 00
 (078.649457)  vcan0  0000014A   [8]  01 00 00 00 00 00 00 00
 (078.650123)  vcan0  0000017C   [8]  00 00 00 00 00 00 08 00
 (078.650897)  vcan0  000001A3   [8]  00 00 00 00 01 00 00 00
 (078.852361)  vcan0  0000014A   [8]  01 00 00 00 00 00 00 00
 (078.863053)  vcan0  0000017C   [8]  00 00 00 00 00 00 08 00
 (078.863994)  vcan0  000001A3   [8]  00 00 00 00 01 00 00 00
 (079.058167)  vcan0  0000014A   [8]  01 00 00 00 00 00 00 00
 (079.059122)  vcan0  0000017C   [8]  00 00 00 00 00 00 08 00
 (079.059691)  vcan0  000001A3   [8]  00 00 00 00 01 00 00 00
 (079.260472)  vcan0  0000014A   [8]  01 00 00 00 00 00 00 00
 (079.261466)  vcan0  0000017C   [8]  00 00 00 00 00 00 08 00
 (079.262517)  vcan0  000001A3   [8]  00 00 00 00 01 00 00 00
 (079.461881)  vcan0  0000014A   [8]  01 00 00 00 00 00 00 00
 (079.462642)  vcan0  0000017C   [8]  00 00 00 00 00 00 08 00
 (079.463188)  vcan0  000001A3   [8]  00 00 00 00 01 00 00 00
 (079.661933)  vcan0  0000014A   [8]  01 00 00 00 00 00 00 00
 (079.662815)  vcan0  0000017C   [8]  00 00 00 00 00 00 08 00
 (079.663711)  vcan0  000001A3   [8]  00 00 00 00 01 00 00 00
 (079.862585)  vcan0  0000014A   [8]  01 00 00 00 00 00 00 00
 (079.863577)  vcan0  0000017C   [8]  00 00 00 00 00 00 08 00
 (079.864308)  vcan0  000001A3   [8]  00 00 00 00 01 00 00 00
 (080.067557)  vcan0  0000014A   [8]  01 00 00 00 00 00 00 00
 (080.068287)  vcan0  0000017C   [8]  00 00 00 00 00 00 08 00
 (080.068865)  vcan0  000001A3   [8]  00 00 00 00 01 00 00 00
 (080.268636)  vcan0  0000014A   [8]  01 00 00 00 00 00 00 00
 (080.269355)  vcan0  0000017C   [8]  00 00 00 00 00 00 08 00
 (080.270034)  vcan0  000001A3   [8]  00 00 00 00 01 00 00 00
 (080.473894)  vcan0  0000014A   [8]  01 00 00 00 00 00 00 00
 (080.474808)  vcan0  0000017C   [8]  00 00 00 00 00 00 08 00
 (080.475525)  vcan0  000001A3   [8]  00 00 00 00 01 00 00 00
 (080.675664)  vcan0  0000014A   [8]  01 00 00 00 00 00 00 00
 (080.676373)  vcan0  0000017C   [8]  00 00 00 00 00 00 08 00
 (080.676963)  vcan0  000001A3   [8]  00 00 00 00 01 00 00 00
 (080.868671)  vcan0  0000014A   [8]  01 00 00 00 00 00 00 00
 (080.869495)  vcan0  0000017C   [8]  00 00 00 00 00 00 08 00
 (080.870127)  vcan0  000001A3   [8]  00 00 00 00 01 00 00 00
 (081.074371)  vcan0  0000014A   [8]  01 00 00 00 00 00 00 00
 (081.075337)  vcan0  0000017C   [8]  00 00 00 00 00 00 08 00
 (081.075920)  vcan0  000001A3   [8]  00 00 00 00 01 00 00 00
 (081.274165)  vcan0  0000014A   [8]  01 00 00 00 00 00 00 00
 (081.274909)  vcan0  0000017C   [8]  00 00 00 00 00 00 08 00
 (081.275459)  vcan0  000001A3   [8]  00 00 00 00 01 00 00 00
 (081.476022)  vcan0  0000014A   [8]  01 00 00 00 00 00 00 00
 (081.476734)  vcan0  0000017C   [8]  00 00 00 00 00 00 08 00
 (081.477285)  vcan0  000001A3   [8]  00 00 00 00 01 00 00 00
 (081.676915)  vcan0  0000014A   [8]  01 00 00 00 00 00 00 00
 (081.677727)  vcan0  0000017C   [8]  00 00 00 00 00 00 08 00
 (081.678267)  vcan0  000001A3   [8]  00 00 00 00 01 00 00 00
 (081.881993)  vcan0  0000014A   [8]  01 00 00 00 00 00 00 00
 (081.882646)  vcan0  0000017C   [8]  00 00 00 00 00 00 08 00
 (081.883223)  vcan0  000001A3   [8]  00 00 00 00 01 00 00 00
 (082.088364)  vcan0  0000014A   [8]  01 00 00 00 00 00 00 00
 (082.089410)  vcan0  0000017C   [8]  00 00 00 00 00 00 08 00
 (082.090105)  vcan0  000001A3   [8]  00 00 00 00 01 00 00 00
 (082.291979)  vcan0  0000014A   [8]  01 00 00 00 00 00 00 00
 (082.292546)  vcan0  0000017C   [8]  00 00 00 00 00 00 08 00
 (082.292893)  vcan0  000001A3   [8]  00 00 00 00 01 00 00 00
 (082.492175)  vcan0  0000014A   [8]  01 00 00 00 00 00 00 00
 (082.493113)  vcan0  0000017C   [8]  00 00 00 00 00 00 08 00
 (082.493641)  vcan0  000001A3   [8]  00 00 00 00 01 00 00 00
 (082.695819)  vcan0  0000014A   [8]  01 00 00 00 00 00 00 00
 (082.696450)  vcan0  0000017C   [8]  00 00 00 00 00 00 08 00
 (082.696840)  vcan0  000001A3   [8]  00 00 00 00 01 00 00 00
 (082.900010)  vcan0  0000014A   [8]  01 00 00 00 00 00 00 00
 (082.900401)  vcan0  0000017C   [8]  00 00 00 00 00 00 08 00
 (082.900744)  vcan0  000001A3   [8]  00 00 00 00 01 00 00 00
 (083.104373)  vcan0  0000014A   [8]  01 00 00 00 00 00 00 00
 (083.104967)  vcan0  0000017C   [8]  00 00 00 00 00 00 08 00
 (083.105430)  vcan0  000001A3   [8]  00 00 00 00 01 00 00 00
 (083.310040)  vcan0  0000014A   [8]  01 00 00 00 00 00 00 00
 (083.310431)  vcan0  0000017C   [8]  00 00 00 00 00 00 08 00
 (083.311147)  vcan0  000001A3   [8]  00 00 00 00 01 00 00 00
 (083.508869)  vcan0  0000014A   [8]  01 00 00 00 00 00 00 00
 (083.509379)  vcan0  0000017C   [8]  00 00 00 00 00 00 08 00
 (083.509824)  vcan0  000001A3   [8]  00 00 00 00 01 00 00 00
 (083.706597)  vcan0  0000014A   [8]  01 00 00 00 00 00 00 00
 (083.707101)  vcan0  0000017C   [8]  00 00 00 00 00 00 08 00
 (083.707464)  vcan0  000001A3   [8]  00 00 00 00 01 00 00 00
 (083.902167)  vcan0  0000014A   [8]  01 00 00 00 00 00 00 00
 (083.902714)  vcan0  0000017C   [8]  00 00 00 00 00 00 08 00
 (083.903094)  vcan0  000001A3   [8]  00 00 00 00 01 00 00 00
 (084.099308)  vcan0  0000014A   [8]  01 00 00 00 00 00 00 00
 (084.099923)  vcan0  0000017C   [8]  00 00 00 00 00 00 08 00
 (084.100457)  vcan0  000001A3   [8]  00 00 00 00 01 00 00 00
 (084.300449)  vcan0  0000014A   [8]  01 00 00 00 00 00 00 00
 (084.301049)  vcan0  0000017C   [8]  00 00 00 00 00 00 08 00
 (084.301477)  vcan0  000001A3   [8]  00 00 00 00 01 00 00 00
 (084.498373)  vcan0  0000014A   [8]  01 00 00 00 00 00 00 00
 (084.499035)  vcan0  0000017C   [8]  00 00 00 00 00 00 08 00
 (084.499671)  vcan0  000001A3   [8]  00 00 00 00 01 00 00 00
 (084.696021)  vcan0  0000014A   [8]  01 00 00 00 00 00 00 00
 (084.696519)  vcan0  0000017C   [8]  00 00 00 00 00 00 08 00
 (084.697382)  vcan0  000001A3   [8]  00 00 00 00 01 00 00 00
 (084.895049)  vcan0  0000014A   [8]  01 00 00 00 00 00 00 00
 (084.895595)  vcan0  0000017C   [8]  00 00 00 00 00 00 08 00
 (084.895998)  vcan0  000001A3   [8]  00 00 00 00 01 00 00 00
 (085.093187)  vcan0  0000014A   [8]  01 00 00 00 00 00 00 00
 (085.094028)  vcan0  0000017C   [8]  00 00 00 00 00 00 08 00
 (085.094667)  vcan0  000001A3   [8]  00 00 00 00 01 00 00 00
 (085.290806)  vcan0  0000014A   [8]  01 00 00 00 00 00 00 00
 (085.291687)  vcan0  0000017C   [8]  00 00 00 00 00 00 08 00
 (085.292244)  vcan0  000001A3   [8]  00 00 00 00 01 00 00 00
 (085.489889)  vcan0  0000014A   [8]  01 00 00 00 00 00 00 00
 (085.490683)  vcan0  0000017C   [8]  00 00 00 00 00 00 08 00
 (085.491326)  vcan0  000001A3   [8]  00 00 00 00 01 00 00 00
 (085.688638)  vcan0  0000014A   [8]  01 00 00 00 00 00 00 00
 (085.689514)  vcan0  0000017C   [8]  00 00 00 00 00 00 08 00
 (085.690119)  vcan0  000001A3   [8]  00 00 00 00 01 00 00 00
 (085.887939)  vcan0  0000014A   [8]  01 00 00 00 00 00 00 00
 (085.888744)  vcan0  0000017C   [8]  00 00 00 00 00 00 08 00
 (085.889376)  vcan0  000001A3   [8]  00 00 00 00 01 00 00 00
 (086.088446)  vcan0  0000014A   [8]  01 00 00 00 00 00 00 00
 (086.089282)  vcan0  0000017C   [8]  00 00 00 00 00 00 08 00
 (086.090023)  vcan0  000001A3   [8]  00 00 00 00 01 00 00 00
 (086.288484)  vcan0  0000014A   [8]  01 00 00 00 00 00 00 00
 (086.289187)  vcan0  0000017C   [8]  00 00 00 00 00 00 08 00
 (086.289813)  vcan0  000001A3   [8]  00 00 00 00 01 00 00 00
 (086.489891)  vcan0  0000014A   [8]  01 00 00 00 00 00 00 00
 (086.490918)  vcan0  0000017C   [8]  00 00 00 00 00 00 08 00
 (086.491889)  vcan0  000001A3   [8]  00 00 00 00 01 00 00 00
 (086.689345)  vcan0  0000014A   [8]  01 00 00 00 00 00 00 00
 (086.690095)  vcan0  0000017C   [8]  00 00 00 00 00 00 08 00
 (086.690981)  vcan0  000001A3   [8]  00 00 00 00 01 00 00 00
 (086.887878)  vcan0  0000014A   [8]  01 00 00 00 00 00 00 00
 (086.888681)  vcan0  0000017C   [8]  00 00 00 00 00 00 08 00
 (086.889229)  vcan0  000001A3   [8]  00 00 00 00 01 00 00 00
 (087.087094)  vcan0  0000014A   [8]  01 00 00 00 00 00 00 00
 (087.088016)  vcan0  0000017C   [8]  00 00 00 00 00 00 08 00
 (087.088872)  vcan0  000001A3   [8]  00 00 00 00 01 00 00 00
 (087.287746)  vcan0  0000014A   [8]  01 00 00 00 00 00 00 00
 (087.288435)  vcan0  0000017C   [8]  00 00 00 00 00 00 08 00
 (087.289027)  vcan0  000001A3   [8]  00 00 00 00 01 00 00 00
 (087.486946)  vcan0  0000014A   [8]  01 00 00 00 00 00 00 00
 (087.487681)  vcan0  0000017C   [8]  00 00 00 00 00 00 08 00
 (087.488312)  vcan0  000001A3   [8]  00 00 00 00 01 00 00 00
 (087.685910)  vcan0  0000014A   [8]  01 00 00 00 00 00 00 00
 (087.686790)  vcan0  0000017C   [8]  00 00 00 00 00 00 08 00
 (087.687368)  vcan0  000001A3   [8]  00 00 00 00 01 00 00 00
 (087.885960)  vcan0  0000014A   [8]  01 00 00 00 00 00 00 00
 (087.886658)  vcan0  0000017C   [8]  00 00 00 00 00 00 08 00
 (087.887283)  vcan0  000001A3   [8]  00 00 00 00 01 00 00 00
 (088.087208)  vcan0  0000014A   [8]  01 00 00 00 00 00 00 00
 (088.087889)  vcan0  0000017C   [8]  00 00 00 00 00 00 08 00
 (088.088506)  vcan0  000001A3   [8]  00 00 00 00 01 00 00 00
 (088.286059)  vcan0  0000014A   [8]  01 00 00 00 00 00 00 00
 (088.286960)  vcan0  0000017C   [8]  00 00 00 00 00 00 08 00
 (088.287591)  vcan0  000001A3   [8]  00 00 00 00 01 00 00 00
 (088.487313)  vcan0  0000014A   [8]  01 00 00 00 00 00 00 00
 (088.488019)  vcan0  0000017C   [8]  00 00 00 00 00 00 08 00
 (088.488672)  vcan0  000001A3   [8]  00 00 00 00 01 00 00 00
 (088.686964)  vcan0  0000014A   [8]  01 00 00 00 00 00 00 00
 (088.687854)  vcan0  0000017C   [8]  00 00 00 00 00 00 08 00
 (088.688592)  vcan0  000001A3   [8]  00 00 00 00 01 00 00 00
 (088.885687)  vcan0  0000014A   [8]  01 00 00 00 00 00 00 00
 (088.886634)  vcan0  0000017C   [8]  00 00 00 00 00 00 08 00
 (088.887269)  vcan0  000001A3   [8]  00 00 00 00 01 00 00 00
 (089.086851)  vcan0  0000014A   [8]  01 00 00 00 00 00 00 00
 (089.087664)  vcan0  0000017C   [8]  00 00 00 00 00 00 08 00
 (089.088251)  vcan0  000001A3   [8]  00 00 00 00 01 00 00 00
 (089.285436)  vcan0  0000014A   [8]  01 00 00 00 00 00 00 00
 (089.286286)  vcan0  0000017C   [8]  00 00 00 00 00 00 08 00
 (089.286996)  vcan0  000001A3   [8]  00 00 00 00 01 00 00 00
 (089.486257)  vcan0  0000014A   [8]  01 00 00 00 00 00 00 00
 (089.487078)  vcan0  0000017C   [8]  00 00 00 00 00 00 08 00
 (089.487822)  vcan0  000001A3   [8]  00 00 00 00 01 00 00 00
 (089.688693)  vcan0  0000014A   [8]  01 00 00 00 00 00 00 00
 (089.690013)  vcan0  0000017C   [8]  00 00 00 00 00 00 08 00
 (089.690808)  vcan0  000001A3   [8]  00 00 00 00 01 00 00 00
 (089.889753)  vcan0  0000014A   [8]  01 00 00 00 00 00 00 00
 (089.890917)  vcan0  0000017C   [8]  00 00 00 00 00 00 08 00
 (089.891735)  vcan0  000001A3   [8]  00 00 00 00 01 00 00 00
 (090.089339)  vcan0  0000014A   [8]  01 00 00 00 00 00 00 00
 (090.090200)  vcan0  0000017C   [8]  00 00 00 00 00 00 08 00
 (090.091166)  vcan0  000001A3   [8]  00 00 00 00 01 00 00 00
 (090.287964)  vcan0  0000014A   [8]  01 00 00 00 00 00 00 00
 (090.288728)  vcan0  0000017C   [8]  00 00 00 00 00 00 08 00
 (090.289335)  vcan0  000001A3   [8]  00 00 00 00 01 00 00 00
 (090.487513)  vcan0  0000014A   [8]  01 00 00 00 00 00 00 00
 (090.488215)  vcan0  0000017C   [8]  00 00 00 00 00 00 08 00
 (090.488794)  vcan0  000001A3   [8]  00 00 00 00 01 00 00 00
 (090.688732)  vcan0  0000014A   [8]  01 00 00 00 00 00 00 00
 (090.689359)  vcan0  0000017C   [8]  00 00 00 00 00 00 08 00
 (090.689950)  vcan0  000001A3   [8]  00 00 00 00 01 00 00 00
 (090.889192)  vcan0  0000014A   [8]  01 00 00 00 00 00 00 00
 (090.889926)  vcan0  0000017C   [8]  00 00 00 00 00 00 08 00
 (090.890648)  vcan0  000001A3   [8]  00 00 00 00 01 00 00 00
 (091.087577)  vcan0  0000014A   [8]  01 00 00 00 00 00 00 00
 (091.088265)  vcan0  0000017C   [8]  00 00 00 00 00 00 08 00
 (091.088889)  vcan0  000001A3   [8]  00 00 00 00 01 00 00 00
 (091.293092)  vcan0  0000014A   [8]  01 00 00 00 00 00 00 00
 (091.302165)  vcan0  0000017C   [8]  00 00 00 00 00 00 08 00
 (091.303028)  vcan0  000001A3   [8]  00 00 00 00 01 00 00 00
 (091.488208)  vcan0  0000014A   [8]  01 00 00 00 00 00 00 00
 (091.489117)  vcan0  0000017C   [8]  00 00 00 00 00 00 08 00
 (091.489945)  vcan0  000001A3   [8]  00 00 00 00 01 00 00 00
 (091.690469)  vcan0  0000014A   [8]  01 00 00 00 00 00 00 00
 (091.691698)  vcan0  0000017C   [8]  00 00 00 00 00 00 08 00
 (091.692389)  vcan0  000001A3   [8]  00 00 00 00 01 00 00 00
 (091.890366)  vcan0  0000014A   [8]  01 00 00 00 00 00 00 00
 (091.891185)  vcan0  0000017C   [8]  00 00 00 00 00 00 08 00
 (091.891769)  vcan0  000001A3   [8]  00 00 00 00 01 00 00 00
 (092.090082)  vcan0  0000014A   [8]  01 00 00 00 00 00 00 00
 (092.091139)  vcan0  0000017C   [8]  00 00 00 00 00 00 08 00
 (092.091770)  vcan0  000001A3   [8]  00 00 00 00 01 00 00 00
 (092.286921)  vcan0  0000014A   [8]  01 00 00 00 00 00 00 00
 (092.288137)  vcan0  0000017C   [8]  00 00 00 00 00 00 08 00
 (092.289031)  vcan0  000001A3   [8]  00 00 00 00 01 00 00 00
 (092.488138)  vcan0  0000014A   [8]  01 00 00 00 00 00 00 00
 (092.489035)  vcan0  0000017C   [8]  00 00 00 00 00 00 08 00
 (092.489810)  vcan0  000001A3   [8]  00 00 00 00 01 00 00 00
 (092.688280)  vcan0  0000014A   [8]  01 00 00 00 00 00 00 00
 (092.689092)  vcan0  0000017C   [8]  00 00 00 00 00 00 08 00
 (092.689704)  vcan0  000001A3   [8]  00 00 00 00 01 00 00 00
 (092.888277)  vcan0  0000014A   [8]  01 00 00 00 00 00 00 00
 (092.888964)  vcan0  0000017C   [8]  00 00 00 00 00 00 08 00
 (092.889594)  vcan0  000001A3   [8]  00 00 00 00 01 00 00 00
 (093.088675)  vcan0  0000014A   [8]  01 00 00 00 00 00 00 00
 (093.089610)  vcan0  0000017C   [8]  00 00 00 00 00 00 08 00
 (093.090340)  vcan0  000001A3   [8]  00 00 00 00 01 00 00 00
 (093.290208)  vcan0  0000014A   [8]  01 00 00 00 00 00 00 00
 (093.291249)  vcan0  0000017C   [8]  00 00 00 00 00 00 08 00
 (093.292109)  vcan0  000001A3   [8]  00 00 00 00 01 00 00 00
 (093.489799)  vcan0  0000014A   [8]  01 00 00 00 00 00 00 00
 (093.490609)  vcan0  0000017C   [8]  00 00 00 00 00 00 08 00
 (093.491467)  vcan0  000001A3   [8]  00 00 00 00 01 00 00 00
 (093.687993)  vcan0  0000014A   [8]  01 00 00 00 00 00 00 00
 (093.688952)  vcan0  0000017C   [8]  00 00 00 00 00 00 08 00
 (093.689684)  vcan0  000001A3   [8]  00 00 00 00 01 00 00 00
 (093.887067)  vcan0  0000014A   [8]  01 00 00 00 00 00 00 00
 (093.887858)  vcan0  0000017C   [8]  00 00 00 00 00 00 08 00
 (093.888463)  vcan0  000001A3   [8]  00 00 00 00 01 00 00 00
 (094.087065)  vcan0  0000014A   [8]  01 00 00 00 00 00 00 00
 (094.087822)  vcan0  0000017C   [8]  00 00 00 00 00 00 08 00
 (094.088484)  vcan0  000001A3   [8]  00 00 00 00 01 00 00 00
 (094.289369)  vcan0  0000014A   [8]  01 00 00 00 00 00 00 00
 (094.290289)  vcan0  0000017C   [8]  00 00 00 00 00 00 08 00
 (094.291060)  vcan0  000001A3   [8]  00 00 00 00 01 00 00 00
 (094.490565)  vcan0  0000014A   [8]  01 00 00 00 00 00 00 00
 (094.491442)  vcan0  0000017C   [8]  00 00 00 00 00 00 08 00
 (094.492097)  vcan0  000001A3   [8]  00 00 00 00 01 00 00 00
 (094.689342)  vcan0  0000014A   [8]  01 00 00 00 00 00 00 00
 (094.690176)  vcan0  0000017C   [8]  00 00 00 00 00 00 08 00
 (094.691023)  vcan0  000001A3   [8]  00 00 00 00 01 00 00 00
 (094.889784)  vcan0  0000014A   [8]  01 00 00 00 00 00 00 00
 (094.890820)  vcan0  0000017C   [8]  00 00 00 00 00 00 08 00
 (094.891604)  vcan0  000001A3   [8]  00 00 00 00 01 00 00 00
 (095.088485)  vcan0  0000014A   [8]  01 00 00 00 00 00 00 00
 (095.089292)  vcan0  0000017C   [8]  00 00 00 00 00 00 08 00
 (095.089912)  vcan0  000001A3   [8]  00 00 00 00 01 00 00 00
 (095.288919)  vcan0  0000014A   [8]  01 00 00 00 00 00 00 00
 (095.289762)  vcan0  0000017C   [8]  00 00 00 00 00 00 08 00
 (095.290362)  vcan0  000001A3   [8]  00 00 00 00 01 00 00 00
 (095.487603)  vcan0  0000014A   [8]  01 00 00 00 00 00 00 00
 (095.488803)  vcan0  0000017C   [8]  00 00 00 00 00 00 08 00
 (095.489424)  vcan0  000001A3   [8]  00 00 00 00 01 00 00 00
 (095.686520)  vcan0  0000014A   [8]  01 00 00 00 00 00 00 00
 (095.687267)  vcan0  0000017C   [8]  00 00 00 00 00 00 08 00
 (095.687831)  vcan0  000001A3   [8]  00 00 00 00 01 00 00 00
 (095.887321)  vcan0  0000014A   [8]  01 00 00 00 00 00 00 00
 (095.889157)  vcan0  0000017C   [8]  00 00 00 00 00 00 08 00
 (095.889900)  vcan0  000001A3   [8]  00 00 00 00 01 00 00 00
 (096.089143)  vcan0  0000014A   [8]  01 00 00 00 00 00 00 00
 (096.089759)  vcan0  0000017C   [8]  00 00 00 00 00 00 08 00
 (096.090346)  vcan0  000001A3   [8]  00 00 00 00 01 00 00 00
 (096.287202)  vcan0  0000014A   [8]  01 00 00 00 00 00 00 00
 (096.287936)  vcan0  0000017C   [8]  00 00 00 00 00 00 08 00
 (096.288520)  vcan0  000001A3   [8]  00 00 00 00 01 00 00 00
 (096.489109)  vcan0  0000014A   [8]  01 00 00 00 00 00 00 00
 (096.489884)  vcan0  0000017C   [8]  00 00 00 00 00 00 08 00
 (096.490619)  vcan0  000001A3   [8]  00 00 00 00 01 00 00 00
 (096.687414)  vcan0  0000014A   [8]  01 00 00 00 00 00 00 00
 (096.688153)  vcan0  0000017C   [8]  00 00 00 00 00 00 08 00
 (096.688767)  vcan0  000001A3   [8]  00 00 00 00 01 00 00 00
 (096.891493)  vcan0  0000014A   [8]  01 00 00 00 00 00 00 00
 (096.894897)  vcan0  0000017C   [8]  00 00 00 00 00 00 08 00
 (096.895562)  vcan0  000001A3   [8]  00 00 00 00 01 00 00 00
 (097.086973)  vcan0  0000014A   [8]  01 00 00 00 00 00 00 00
 (097.087773)  vcan0  0000017C   [8]  00 00 00 00 00 00 08 00
 (097.088380)  vcan0  000001A3   [8]  00 00 00 00 01 00 00 00
 (097.286730)  vcan0  0000014A   [8]  01 00 00 00 00 00 00 00
 (097.287549)  vcan0  0000017C   [8]  00 00 00 00 00 00 08 00
 (097.288258)  vcan0  000001A3   [8]  00 00 00 00 01 00 00 00
 (097.487902)  vcan0  0000014A   [8]  01 00 00 00 00 00 00 00
 (097.488858)  vcan0  0000017C   [8]  00 00 00 00 00 00 08 00
 (097.489661)  vcan0  000001A3   [8]  00 00 00 00 01 00 00 00
 (097.691323)  vcan0  0000014A   [8]  01 00 00 00 00 00 00 00
 (097.692238)  vcan0  0000017C   [8]  00 00 00 00 00 00 08 00
 (097.692942)  vcan0  000001A3   [8]  00 00 00 00 01 00 00 00
 (097.891733)  vcan0  0000014A   [8]  01 00 00 00 00 00 00 00
 (097.892500)  vcan0  0000017C   [8]  00 00 00 00 00 00 08 00
 (097.893065)  vcan0  000001A3   [8]  00 00 00 00 01 00 00 00
 (098.091522)  vcan0  0000014A   [8]  01 00 00 00 00 00 00 00
 (098.092364)  vcan0  0000017C   [8]  00 00 00 00 00 00 08 00
 (098.093018)  vcan0  000001A3   [8]  00 00 00 00 01 00 00 00
 (098.290944)  vcan0  0000014A   [8]  01 00 00 00 00 00 00 00
 (098.291826)  vcan0  0000017C   [8]  00 00 00 00 00 00 08 00
 (098.292703)  vcan0  000001A3   [8]  00 00 00 00 01 00 00 00
 (098.491085)  vcan0  0000014A   [8]  01 00 00 00 00 00 00 00
 (098.491976)  vcan0  0000017C   [8]  00 00 00 00 00 00 08 00
 (098.492552)  vcan0  000001A3   [8]  00 00 00 00 01 00 00 00
 (098.692980)  vcan0  0000014A   [8]  01 00 00 00 00 00 00 00
 (098.693679)  vcan0  0000017C   [8]  00 00 00 00 00 00 08 00
 (098.694279)  vcan0  000001A3   [8]  00 00 00 00 01 00 00 00
 (098.892384)  vcan0  0000014A   [8]  01 00 00 00 00 00 00 00
 (098.893195)  vcan0  0000017C   [8]  00 00 00 00 00 00 08 00
 (098.893745)  vcan0  000001A3   [8]  00 00 00 00 01 00 00 00
 (099.092639)  vcan0  0000014A   [8]  01 0C 00 00 00 00 00 00
 (099.093528)  vcan0  0000017C   [8]  C0 00 00 00 00 00 00 00
 (099.094115)  vcan0  000001A3   [8]  00 00 00 00 01 00 00 00
 (099.294003)  vcan0  0000014A   [8]  00 AE 00 00 00 00 00 00
 (099.295157)  vcan0  0000017C   [8]  C0 00 00 00 00 00 00 00
 (099.295816)  vcan0  000001A3   [8]  00 00 00 00 01 00 00 00
 (099.494184)  vcan0  0000014A   [8]  00 AF 00 00 00 00 00 00
 (099.495064)  vcan0  0000017C   [8]  C0 00 00 00 00 00 00 00
 (099.495793)  vcan0  000001A3   [8]  00 00 00 00 01 00 00 00
 (099.697105)  vcan0  0000014A   [8]  00 B1 00 00 00 00 00 00
 (099.697785)  vcan0  0000017C   [8]  C0 00 00 00 00 00 00 00
 (099.698347)  vcan0  000001A3   [8]  00 00 00 00 01 00 00 00
 (099.894108)  vcan0  0000014A   [8]  00 B3 00 00 00 00 00 00
 (099.894909)  vcan0  0000017C   [8]  C0 00 00 00 00 00 00 00
 (099.895513)  vcan0  000001A3   [8]  00 00 00 00 01 00 00 00
 (100.094274)  vcan0  0000014A   [8]  00 BB 00 00 00 00 00 00
 (100.095494)  vcan0  0000017C   [8]  C0 00 00 00 00 00 00 00
 (100.096223)  vcan0  000001A3   [8]  00 00 00 00 01 00 00 00
 (100.293092)  vcan0  0000014A   [8]  00 C3 00 00 00 00 00 00
 (100.293803)  vcan0  0000017C   [8]  C0 00 00 00 00 00 00 00
 (100.294457)  vcan0  000001A3   [8]  00 00 00 00 01 00 00 00
 (100.491561)  vcan0  0000014A   [8]  00 C9 00 00 00 00 00 00
 (100.492448)  vcan0  0000017C   [8]  C0 00 00 00 00 00 00 00
 (100.493057)  vcan0  000001A3   [8]  00 00 00 00 01 00 00 00
 (100.692190)  vcan0  0000014A   [8]  00 D2 00 00 00 00 00 00
 (100.692937)  vcan0  0000017C   [8]  C0 00 00 00 00 00 00 00
 (100.693452)  vcan0  000001A3   [8]  00 00 00 00 01 00 00 00
 (100.893524)  vcan0  0000014A   [8]  01 D2 00 00 00 00 00 00
 (100.894295)  vcan0  0000017C   [8]  C0 00 00 00 00 00 00 00
 (100.895229)  vcan0  000001A3   [8]  00 00 00 00 01 00 00 00
 (101.097342)  vcan0  0000014A   [8]  02 D2 00 00 00 00 00 00
 (101.098475)  vcan0  0000017C   [8]  C0 00 00 00 00 00 00 00
 (101.099106)  vcan0  000001A3   [8]  00 00 00 00 01 00 00 00
 (101.298147)  vcan0  0000014A   [8]  03 D2 00 00 00 00 00 00
 (101.299220)  vcan0  0000017C   [8]  C0 00 00 00 00 00 00 00
 (101.299884)  vcan0  000001A3   [8]  00 00 00 00 01 00 00 00
 (101.497266)  vcan0  0000014A   [8]  03 35 00 00 00 00 00 00
 (101.500323)  vcan0  0000017C   [8]  C0 00 00 00 00 00 00 00
 (101.501072)  vcan0  000001A3   [8]  00 00 00 00 01 00 00 00
 (101.696004)  vcan0  0000014A   [8]  02 80 00 00 00 00 00 00
 (101.701985)  vcan0  0000017C   [8]  C0 00 00 00 00 00 00 00
 (101.702861)  vcan0  000001A3   [8]  00 00 00 00 01 00 00 00
 (101.902765)  vcan0  0000014A   [8]  03 80 00 00 00 00 00 00
 (101.903488)  vcan0  0000017C   [8]  C0 00 00 00 00 00 00 00
 (101.904083)  vcan0  000001A3   [8]  00 00 00 00 01 00 00 00
 (102.102537)  vcan0  0000014A   [8]  02 AF 00 00 00 00 00 00
 (102.103691)  vcan0  0000017C   [8]  C0 00 00 00 00 00 00 00
 (102.104703)  vcan0  000001A3   [8]  00 00 00 00 01 00 00 00
 (102.303521)  vcan0  0000014A   [8]  02 1A 00 00 00 00 00 00
 (102.304398)  vcan0  0000017C   [8]  C0 00 00 00 00 00 00 00
 (102.305024)  vcan0  000001A3   [8]  00 00 00 00 01 00 00 00
 (102.506838)  vcan0  0000014A   [8]  03 1A 00 00 00 00 00 00
 (102.507654)  vcan0  0000017C   [8]  C0 00 00 00 00 00 00 00
 (102.508255)  vcan0  000001A3   [8]  00 00 00 00 01 00 00 00
 (102.710698)  vcan0  0000014A   [8]  02 1A 00 00 00 00 00 00
 (102.711791)  vcan0  0000017C   [8]  C0 00 00 00 00 00 00 00
 (102.712686)  vcan0  000001A3   [8]  00 00 00 00 01 00 00 00
 (102.912328)  vcan0  0000014A   [8]  01 A4 00 00 00 00 00 00
 (102.913264)  vcan0  0000017C   [8]  C0 00 00 00 00 00 00 00
 (102.914145)  vcan0  000001A3   [8]  00 00 00 00 01 00 00 00
 (103.119231)  vcan0  0000014A   [8]  02 A4 00 00 00 00 00 00
 (103.119889)  vcan0  0000017C   [8]  C0 00 00 00 00 00 00 00
 (103.120859)  vcan0  000001A3   [8]  00 00 00 00 01 00 00 00
 (103.320562)  vcan0  0000014A   [8]  01 A4 00 00 00 00 00 00
 (103.321699)  vcan0  0000017C   [8]  C0 00 00 00 00 00 00 00
 (103.322348)  vcan0  000001A3   [8]  00 00 00 00 00 00 00 00
 (103.524442)  vcan0  0000014A   [8]  00 A4 00 00 00 00 00 00
 (103.525489)  vcan0  0000017C   [8]  00 00 00 00 00 00 04 C0
 (103.526320)  vcan0  000001A3   [8]  00 00 00 00 02 00 00 00
 (103.727930)  vcan0  0000014A   [8]  01 A4 00 00 00 00 00 00
 (103.729026)  vcan0  0000017C   [8]  00 00 00 00 00 00 04 C0
 (103.729738)  vcan0  000001A3   [8]  00 00 00 00 02 00 00 00
 (103.931593)  vcan0  0000014A   [8]  01 8D 00 00 00 00 00 00
 (103.932347)  vcan0  0000017C   [8]  00 00 00 00 00 00 04 C0
 (103.932920)  vcan0  000001A3   [8]  00 00 00 00 02 00 00 00
 (104.134345)  vcan0  0000014A   [8]  00 8D 00 00 00 00 00 00
 (104.135145)  vcan0  0000017C   [8]  00 00 00 00 00 00 04 C0
 (104.135676)  vcan0  000001A3   [8]  00 00 00 00 02 00 00 00
 (104.333583)  vcan0  0000014A   [8]  00 A2 00 00 00 00 00 00
 (104.334526)  vcan0  0000017C   [8]  05 00 00 00 00 00 00 00
 (104.335178)  vcan0  000001A3   [8]  00 00 00 00 02 00 00 00
 (104.532277)  vcan0  0000014A   [8]  01 2B 00 00 00 00 00 00
 (104.533036)  vcan0  0000017C   [8]  C0 00 00 00 00 00 00 00
 (104.533655)  vcan0  000001A3   [8]  00 00 00 00 00 00 00 00
 (104.731603)  vcan0  0000014A   [8]  00 F1 00 00 00 00 00 00
 (104.732296)  vcan0  0000017C   [8]  C0 00 00 00 00 00 00 00
 (104.732817)  vcan0  000001A3   [8]  00 00 00 00 01 00 00 00
 (104.928277)  vcan0  0000014A   [8]  FF F1 00 00 00 00 00 00
 (104.932259)  vcan0  0000017C   [8]  C0 00 00 00 00 00 00 00
 (104.933016)  vcan0  000001A3   [8]  00 00 00 00 01 00 00 00
 (105.130005)  vcan0  0000014A   [8]  00 58 00 00 00 00 00 00
 (105.136790)  vcan0  0000017C   [8]  C0 00 00 00 00 00 00 00
 (105.137579)  vcan0  000001A3   [8]  00 00 00 00 01 00 00 00
 (105.322971)  vcan0  0000014A   [8]  00 D0 00 00 00 00 00 00
 (105.323886)  vcan0  0000017C   [8]  C0 00 00 00 00 00 00 00
 (105.324509)  vcan0  000001A3   [8]  00 00 00 00 01 00 00 00
 (105.518477)  vcan0  0000014A   [8]  00 AC 00 00 00 00 00 00
 (105.519277)  vcan0  0000017C   [8]  C0 00 00 00 00 00 00 00
 (105.519832)  vcan0  000001A3   [8]  00 00 00 00 01 00 00 00
 (105.715314)  vcan0  0000014A   [8]  FF AC 00 00 00 00 00 00
 (105.716157)  vcan0  0000017C   [8]  C0 00 00 00 00 00 00 00
 (105.716839)  vcan0  000001A3   [8]  00 00 00 00 00 00 00 00
 (105.910630)  vcan0  0000014A   [8]  00 11 00 00 00 00 00 00
 (105.911846)  vcan0  0000017C   [8]  C0 00 00 00 00 00 00 00
 (105.912705)  vcan0  000001A3   [8]  00 00 00 00 02 00 00 00
 (106.103541)  vcan0  0000014A   [8]  FF 11 00 00 00 00 00 00
 (106.104742)  vcan0  0000017C   [8]  00 00 00 00 00 00 04 C0
 (106.105460)  vcan0  000001A3   [8]  00 00 00 00 02 00 00 00
 (106.299209)  vcan0  0000014A   [8]  00 11 00 00 00 00 00 00
 (106.299904)  vcan0  0000017C   [8]  00 00 00 00 00 00 04 C0
 (106.300443)  vcan0  000001A3   [8]  00 00 00 00 02 00 00 00
 (106.490871)  vcan0  0000014A   [8]  01 11 00 00 00 00 00 00
 (106.491933)  vcan0  0000017C   [8]  00 00 00 00 00 00 04 C0
 (106.492619)  vcan0  000001A3   [8]  00 00 00 00 02 00 00 00
 (106.682674)  vcan0  0000014A   [8]  00 11 00 00 00 00 00 00
 (106.684221)  vcan0  0000017C   [8]  00 00 00 00 00 00 04 C0
 (106.684965)  vcan0  000001A3   [8]  00 00 00 00 02 00 00 00
 (106.877497)  vcan0  0000014A   [8]  FF 5C 00 00 00 00 00 00
 (106.878999)  vcan0  0000017C   [8]  C0 00 00 00 00 00 00 00
 (106.879639)  vcan0  000001A3   [8]  00 00 00 00 00 00 00 00
 (107.067074)  vcan0  0000014A   [8]  00 5C 00 00 00 00 00 00
 (107.077257)  vcan0  0000017C   [8]  C0 00 00 00 00 00 00 00
 (107.077939)  vcan0  000001A3   [8]  00 00 00 00 01 00 00 00
 (107.258803)  vcan0  0000014A   [8]  00 BA 00 00 00 00 00 00
 (107.259645)  vcan0  0000017C   [8]  C0 00 00 00 00 00 00 00
 (107.260244)  vcan0  000001A3   [8]  00 00 00 00 01 00 00 00
 (107.448219)  vcan0  0000014A   [8]  00 6A 00 00 00 00 00 00
 (107.449195)  vcan0  0000017C   [8]  C0 00 00 00 00 00 00 00
 (107.450722)  vcan0  000001A3   [8]  00 00 00 00 01 00 00 00
 (107.637600)  vcan0  0000014A   [8]  FF 6A 00 00 00 00 00 00
 (107.638337)  vcan0  0000017C   [8]  C0 00 00 00 00 00 00 00
 (107.638988)  vcan0  000001A3   [8]  00 00 00 00 01 00 00 00
 (107.826710)  vcan0  0000014A   [8]  FF A2 00 00 00 00 00 00
 (107.827650)  vcan0  0000017C   [8]  C0 00 00 00 00 00 00 00
 (107.828298)  vcan0  000001A3   [8]  00 00 00 00 01 00 00 00
 (108.015049)  vcan0  0000014A   [8]  00 6E 00 00 00 00 00 00
 (108.016210)  vcan0  0000017C   [8]  C0 00 00 00 00 00 00 00
 (108.016790)  vcan0  000001A3   [8]  00 00 00 00 00 00 00 00
 (108.205398)  vcan0  0000014A   [8]  FF 6E 00 00 00 00 00 00
 (108.206110)  vcan0  0000017C   [8]  C0 00 00 00 00 00 00 00
 (108.206786)  vcan0  000001A3   [8]  00 00 00 00 02 00 00 00
 (108.399723)  vcan0  0000014A   [8]  FF 5F 00 00 00 00 00 00
 (108.400619)  vcan0  0000017C   [8]  2F 00 00 00 00 00 00 00
 (108.401581)  vcan0  000001A3   [8]  00 00 00 00 02 00 00 00
 (108.588587)  vcan0  0000014A   [8]  FE 5F 00 00 00 00 00 00
 (108.589449)  vcan0  0000017C   [8]  00 00 00 00 00 00 04 C0
 (108.590123)  vcan0  000001A3   [8]  00 00 00 00 02 00 00 00
 (108.778800)  vcan0  0000014A   [8]  FF 5F 00 00 00 00 00 00
 (108.779806)  vcan0  0000017C   [8]  00 00 00 00 00 00 04 C0
 (108.780562)  vcan0  000001A3   [8]  00 00 00 00 02 00 00 00
 (108.969172)  vcan0  0000014A   [8]  00 5F 00 00 00 00 00 00
 (108.970044)  vcan0  0000017C   [8]  00 00 00 00 00 00 04 C0
 (108.970899)  vcan0  000001A3   [8]  00 00 00 00 02 00 00 00
 (109.154494)  vcan0  0000014A   [8]  00 BE 00 00 00 00 00 00
 (109.155251)  vcan0  0000017C   [8]  C0 00 00 00 00 00 00 00
 (109.155811)  vcan0  000001A3   [8]  00 00 00 00 00 00 00 00
 (109.344983)  vcan0  0000014A   [8]  FF BE 00 00 00 00 00 00
 (109.349121)  vcan0  0000017C   [8]  C0 00 00 00 00 00 00 00
 (109.361993)  vcan0  000001A3   [8]  00 00 00 00 00 00 00 00
 (109.531270)  vcan0  0000014A   [8]  FE BE 00 00 00 00 00 00
 (109.534295)  vcan0  0000017C   [8]  C0 00 00 00 00 00 00 00
 (109.534997)  vcan0  000001A3   [8]  00 00 00 00 01 00 00 00
 (109.718902)  vcan0  0000014A   [8]  FF B5 00 00 00 00 00 00
 (109.719596)  vcan0  0000017C   [8]  C0 00 00 00 00 00 00 00
 (109.720215)  vcan0  000001A3   [8]  00 00 00 00 01 00 00 00
 (109.903705)  vcan0  0000014A   [8]  00 4B 00 00 00 00 00 00
 (109.904564)  vcan0  0000017C   [8]  C0 00 00 00 00 00 00 00
 (109.905179)  vcan0  000001A3   [8]  00 00 00 00 01 00 00 00
 (110.095634)  vcan0  0000014A   [8]  FF 4B 00 00 00 00 00 00
 (110.096386)  vcan0  0000017C   [8]  C0 00 00 00 00 00 00 00
 (110.097053)  vcan0  000001A3   [8]  00 00 00 00 01 00 00 00
 (110.278333)  vcan0  0000014A   [8]  FE 6E 00 00 00 00 00 00
 (110.279305)  vcan0  0000017C   [8]  C0 00 00 00 00 00 00 00
 (110.280143)  vcan0  000001A3   [8]  00 00 00 00 00 00 00 00
 (110.464233)  vcan0  0000014A   [8]  FF 6E 00 00 00 00 00 00
 (110.465993)  vcan0  0000017C   [8]  C0 00 00 00 00 00 00 00
 (110.466758)  vcan0  000001A3   [8]  00 00 00 00 02 00 00 00
 (110.650033)  vcan0  0000014A   [8]  FE 6E 00 00 00 00 00 00
 (110.651007)  vcan0  0000017C   [8]  49 00 00 00 00 00 00 00
 (110.651744)  vcan0  000001A3   [8]  00 00 00 00 02 00 00 00
 (110.835134)  vcan0  0000014A   [8]  FF 6E 00 00 00 00 00 00
 (110.835880)  vcan0  0000017C   [8]  1A 00 00 00 00 00 00 00
 (110.836415)  vcan0  000001A3   [8]  00 00 00 00 02 00 00 00
 (111.021649)  vcan0  0000014A   [8]  FE 6E 00 00 00 00 00 00
 (111.022646)  vcan0  0000017C   [8]  22 00 00 00 00 00 00 00
 (111.023271)  vcan0  000001A3   [8]  00 00 00 00 02 00 00 00
 (111.207690)  vcan0  0000014A   [8]  FF 6E 00 00 00 00 00 00
 (111.208449)  vcan0  0000017C   [8]  C0 00 00 00 00 00 00 00
 (111.209049)  vcan0  000001A3   [8]  00 00 00 00 02 00 00 00
 (111.393041)  vcan0  0000014A   [8]  00 50 00 00 00 00 00 00
 (111.394056)  vcan0  0000017C   [8]  C0 00 00 00 00 00 00 00
 (111.394767)  vcan0  000001A3   [8]  00 00 00 00 02 00 00 00
 (111.579696)  vcan0  0000014A   [8]  FF 50 00 00 00 00 00 00
 (111.580696)  vcan0  0000017C   [8]  C0 00 00 00 00 00 00 00
 (111.581372)  vcan0  000001A3   [8]  00 00 00 00 02 00 00 00
 (111.766629)  vcan0  0000014A   [8]  FE 5A 00 00 00 00 00 00
 (111.767786)  vcan0  0000017C   [8]  A7 00 00 00 00 00 00 00
 (111.768468)  vcan0  000001A3   [8]  00 00 00 00 02 00 00 00
 (111.952729)  vcan0  0000014A   [8]  FF 5A 00 00 00 00 00 00
 (111.953522)  vcan0  0000017C   [8]  00 00 00 00 00 00 02 00
 (111.954144)  vcan0  000001A3   [8]  00 00 00 00 02 00 00 00
 (112.134365)  vcan0  0000014A   [8]  FE 5A 00 00 00 00 00 00
 (112.135629)  vcan0  0000017C   [8]  00 00 00 00 00 00 04 C0
 (112.136461)  vcan0  000001A3   [8]  00 00 00 00 02 00 00 00
 (112.314890)  vcan0  0000014A   [8]  FF 5A 00 00 00 00 00 00
 (112.315619)  vcan0  0000017C   [8]  26 00 00 00 00 00 00 00
 (112.316304)  vcan0  000001A3   [8]  00 00 00 00 02 00 00 00
 (112.493900)  vcan0  0000014A   [8]  00 5A 00 00 00 00 00 00
 (112.494631)  vcan0  0000017C   [8]  C0 00 00 00 00 00 00 00
 (112.495201)  vcan0  000001A3   [8]  00 00 00 00 02 00 00 00
 (112.672201)  vcan0  0000014A   [8]  FF 5A 00 00 00 00 00 00
 (112.673397)  vcan0  0000017C   [8]  C0 00 00 00 00 00 00 00
 (112.674038)  vcan0  000001A3   [8]  00 00 00 00 02 00 00 00
 (112.853731)  vcan0  0000014A   [8]  00 5A 00 00 00 00 00 00
 (112.854489)  vcan0  0000017C   [8]  C0 00 00 00 00 00 00 00
 (112.855907)  vcan0  000001A3   [8]  00 00 00 00 02 00 00 00
 (113.034519)  vcan0  0000014A   [8]  01 0A 00 00 00 00 00 00
 (113.035290)  vcan0  0000017C   [8]  C0 00 00 00 00 00 00 00
 (113.035837)  vcan0  000001A3   [8]  00 00 00 00 02 00 00 00
 (113.218364)  vcan0  0000014A   [8]  00 0A 00 00 00 00 00 00
 (113.219126)  vcan0  0000017C   [8]  01 00 00 00 00 00 00 00
 (113.219708)  vcan0  000001A3   [8]  00 00 00 00 02 00 00 00
 (113.403924)  vcan0  0000014A   [8]  00 10 00 00 00 00 00 00
 (113.404365)  vcan0  0000017C   [8]  00 00 00 00 00 00 04 C0
 (113.404675)  vcan0  000001A3   [8]  00 00 00 00 02 00 00 00
 (113.585488)  vcan0  0000014A   [8]  FF 6F 00 00 00 00 00 00
 (113.586158)  vcan0  0000017C   [8]  00 00 00 00 00 00 04 C0
 (113.586510)  vcan0  000001A3   [8]  00 00 00 00 02 00 00 00
 (113.770914)  vcan0  0000014A   [8]  00 6F 00 00 00 00 00 00
 (113.771604)  vcan0  0000017C   [8]  C0 00 00 00 00 00 00 00
 (113.771950)  vcan0  000001A3   [8]  00 00 00 00 02 00 00 00
 (113.952628)  vcan0  0000014A   [8]  01 6F 00 00 00 00 00 00
 (113.953463)  vcan0  0000017C   [8]  C0 00 00 00 00 00 00 00
 (113.953955)  vcan0  000001A3   [8]  00 00 00 00 02 00 00 00
 (114.136907)  vcan0  0000014A   [8]  00 7E 00 00 00 00 00 00
 (114.137416)  vcan0  0000017C   [8]  C0 00 00 00 00 00 00 00
 (114.137781)  vcan0  000001A3   [8]  00 00 00 00 02 00 00 00
 (114.323067)  vcan0  0000014A   [8]  FF 7E 00 00 00 00 00 00
 (114.323583)  vcan0  0000017C   [8]  C0 00 00 00 00 00 00 00
 (114.323974)  vcan0  000001A3   [8]  00 00 00 00 02 00 00 00
 (114.505301)  vcan0  0000014A   [8]  00 7E 00 00 00 00 00 00
 (114.505945)  vcan0  0000017C   [8]  92 00 00 00 00 00 00 00
 (114.506642)  vcan0  000001A3   [8]  00 00 00 00 02 00 00 00
 (114.692384)  vcan0  0000014A   [8]  00 DF 00 00 00 00 00 00
 (114.693073)  vcan0  0000017C   [8]  00 00 00 00 00 00 04 C0
 (114.693509)  vcan0  000001A3   [8]  00 00 00 00 02 00 00 00
 (114.874261)  vcan0  0000014A   [8]  01 2E 00 00 00 00 00 00
 (114.874864)  vcan0  0000017C   [8]  00 00 00 00 00 00 04 C0
 (114.875256)  vcan0  000001A3   [8]  00 00 00 00 02 00 00 00
 (115.060190)  vcan0  0000014A   [8]  00 B3 00 00 00 00 00 00
 (115.060904)  vcan0  0000017C   [8]  2C 00 00 00 00 00 00 00
 (115.061193)  vcan0  000001A3   [8]  00 00 00 00 02 00 00 00
 (115.241397)  vcan0  0000014A   [8]  00 E5 00 00 00 00 00 00
 (115.242103)  vcan0  0000017C   [8]  C0 00 00 00 00 00 00 00
 (115.242646)  vcan0  000001A3   [8]  00 00 00 00 02 00 00 00
 (115.426455)  vcan0  0000014A   [8]  00 F8 00 00 00 00 00 00
 (115.427147)  vcan0  0000017C   [8]  C0 00 00 00 00 00 00 00
 (115.427565)  vcan0  000001A3   [8]  00 00 00 00 02 00 00 00
 (115.610022)  vcan0  0000014A   [8]  01 F8 00 00 00 00 00 00
 (115.611079)  vcan0  0000017C   [8]  C0 00 00 00 00 00 00 00
 (115.611744)  vcan0  000001A3   [8]  00 00 00 00 02 00 00 00
 (115.791411)  vcan0  0000014A   [8]  02 F8 00 00 00 00 00 00
 (115.792618)  vcan0  0000017C   [8]  00 00 00 00 00 00 04 C0
 (115.793130)  vcan0  000001A3   [8]  00 00 00 00 02 00 00 00
 (115.970188)  vcan0  0000014A   [8]  03 7E 00 00 00 00 00 00
 (115.970907)  vcan0  0000017C   [8]  00 00 00 00 00 00 04 C0
 (115.971319)  vcan0  000001A3   [8]  00 00 00 00 02 00 00 00
 (116.149606)  vcan0  0000014A   [8]  02 7E 00 00 00 00 00 00
 (116.150200)  vcan0  0000017C   [8]  00 00 00 00 00 00 04 C0
 (116.150784)  vcan0  000001A3   [8]  00 00 00 00 02 00 00 00
 (116.325580)  vcan0  0000014A   [8]  01 7E 00 00 00 00 00 00
 (116.326128)  vcan0  0000017C   [8]  94 00 00 00 00 00 00 00
 (116.326816)  vcan0  000001A3   [8]  00 00 00 00 02 00 00 00
 (116.499248)  vcan0  0000014A   [8]  01 78 00 00 00 00 00 00
 (116.499810)  vcan0  0000017C   [8]  C0 00 00 00 00 00 00 00
 (116.500272)  vcan0  000001A3   [8]  00 00 00 00 02 00 00 00
 (116.672609)  vcan0  0000014A   [8]  01 A8 00 00 00 00 00 00
 (116.673059)  vcan0  0000017C   [8]  C0 00 00 00 00 00 00 00
 (116.673370)  vcan0  000001A3   [8]  00 00 00 00 02 00 00 00
 (116.844506)  vcan0  0000014A   [8]  01 4D 00 00 00 00 00 00
 (116.845116)  vcan0  0000017C   [8]  C0 00 00 00 00 00 00 00
 (116.845544)  vcan0  000001A3   [8]  00 00 00 00 02 00 00 00
 (117.014713)  vcan0  0000014A   [8]  01 3C 00 00 00 00 00 00
 (117.015222)  vcan0  0000017C   [8]  36 00 00 00 00 00 00 00
 (117.016069)  vcan0  000001A3   [8]  00 00 00 00 02 00 00 00
 (117.191794)  vcan0  0000014A   [8]  01 3C 00 00 00 00 00 00
 (117.192278)  vcan0  0000017C   [8]  00 00 00 00 00 00 04 C0
 (117.192646)  vcan0  000001A3   [8]  00 00 00 00 02 00 00 00
 (117.361620)  vcan0  0000014A   [8]  01 00 00 00 00 00 00 00
 (117.362287)  vcan0  0000017C   [8]  00 00 00 00 00 00 08 00
 (117.367575)  vcan0  000001A3   [8]  00 00 00 00 02 00 00 00
 (117.539992)  vcan0  0000014A   [8]  01 00 00 00 00 00 00 00
 (117.544833)  vcan0  0000017C   [8]  00 00 00 00 00 00 08 00
 (117.545468)  vcan0  000001A3   [8]  00 00 00 00 02 00 00 00
 (117.709521)  vcan0  0000014A   [8]  01 00 00 00 00 00 00 00
 (117.710375)  vcan0  0000017C   [8]  00 00 00 00 00 00 08 00
 (117.710878)  vcan0  000001A3   [8]  00 00 00 00 00 00 00 00
 (117.882080)  vcan0  0000014A   [8]  01 00 00 00 00 00 00 00
 (117.882665)  vcan0  0000017C   [8]  00 00 00 00 00 00 08 00
 (117.883087)  vcan0  000001A3   [8]  00 00 00 00 01 00 00 00
 (118.050596)  vcan0  0000014A   [8]  01 00 00 00 00 00 00 00
 (118.051484)  vcan0  0000017C   [8]  00 00 00 00 00 00 08 00
 (118.051908)  vcan0  000001A3   [8]  00 00 00 00 01 00 00 00
 (118.223842)  vcan0  0000014A   [8]  01 00 00 00 00 00 00 00
 (118.229111)  vcan0  0000017C   [8]  00 00 00 00 00 00 08 00
 (118.229853)  vcan0  000001A3   [8]  00 00 00 00 01 00 00 00
 (118.391617)  vcan0  0000014A   [8]  01 00 00 00 00 00 00 00
 (118.392307)  vcan0  0000017C   [8]  00 00 00 00 00 00 08 00
 (118.392866)  vcan0  000001A3   [8]  00 00 00 00 01 00 00 00
 (118.563355)  vcan0  0000014A   [8]  01 00 00 00 00 00 00 00
 (118.563952)  vcan0  0000017C   [8]  00 00 00 00 00 00 08 00
 (118.564354)  vcan0  000001A3   [8]  00 00 00 00 01 00 00 00
 (118.731547)  vcan0  0000014A   [8]  01 00 00 00 00 00 00 00
 (118.732137)  vcan0  0000017C   [8]  00 00 00 00 00 00 08 00
 (118.732613)  vcan0  000001A3   [8]  00 00 00 00 01 00 00 00
 (118.903682)  vcan0  0000014A   [8]  01 00 00 00 00 00 00 00
