(1695025770.685958) vcan0 000001D0#0000000000000000
(1695025770.686174) vcan0 000001A3#0000000403000000
(1695025770.686287) vcan0 0000014A#0000000000000000
(1695025770.698694) vcan0 000001D0#0000000000000000
(1695025770.698836) vcan0 000001A3#0000000403000000
(1695025770.698931) vcan0 0000014A#0000000000000000
(1695025770.719120) vcan0 000001D0#0000000000000000
(1695025770.719400) vcan0 000001A3#0000000403000000
(1695025770.719548) vcan0 0000014A#0000000000000000
(1695025770.744340) vcan0 000001D0#0000000000000000
(1695025770.744488) vcan0 000001A3#0000000403000000
(1695025770.744588) vcan0 0000014A#0000000000000000
(1695025770.765677) vcan0 000001D0#0000000000000000
(1695025770.765863) vcan0 000001A3#0000000403000000
(1695025770.765920) vcan0 0000014A#0000000000000000
(1695025770.780752) vcan0 000001D0#0000000000000000
(1695025770.780887) vcan0 000001A3#0000000403000000
(1695025770.780925) vcan0 0000014A#0000000000000000
(1695025770.804263) vcan0 000001D0#0000000000000000
(1695025770.804412) vcan0 000001A3#0000000403000000
(1695025770.804460) vcan0 0000014A#0000000000000000
(1695025770.819916) vcan0 000001D0#0000000000000000
(1695025770.820156) vcan0 000001A3#0000000403000000
(1695025770.820210) vcan0 0000014A#0000000000000000
(1695025770.835673) vcan0 000001D0#0000000000000000
(1695025770.835833) vcan0 000001A3#0000000403000000
(1695025770.835892) vcan0 0000014A#0000000000000000
(1695025770.852033) vcan0 000001D0#0000000000000000
(1695025770.853121) vcan0 000001A3#0000000403000000
(1695025770.853257) vcan0 0000014A#0000000000000000
(1695025770.867646) vcan0 000001D0#0000000000000000
(1695025770.867962) vcan0 000001A3#0000000403000000
(1695025770.868062) vcan0 0000014A#0000000000000000
(1695025770.882558) vcan0 000001D0#0000000000000000
(1695025770.882730) vcan0 000001A3#0000000403000000
(1695025770.882783) vcan0 0000014A#0000000000000000
(1695025770.903462) vcan0 000001D0#0000000000000000
(1695025770.903686) vcan0 000001A3#0000000403000000
(1695025770.903761) vcan0 0000014A#0000000000000000
(1695025770.921029) vcan0 000001D0#0000000000000000
(1695025770.921212) vcan0 000001A3#0000000403000000
(1695025770.921377) vcan0 0000014A#0000000000000000
(1695025770.939753) vcan0 000001D0#0000000000000000
(1695025770.940734) vcan0 000001A3#0000000403000000
(1695025770.940828) vcan0 0000014A#0000000000000000
(1695025770.962353) vcan0 000001D0#0000000000000000
(1695025770.962646) vcan0 000001A3#0000000403000000
(1695025770.962703) vcan0 0000014A#0000000000000000
(1695025770.983750) vcan0 000001D0#0000000000000000
(1695025770.983907) vcan0 000001A3#0000000403000000
(1695025770.983964) vcan0 0000014A#0000000000000000
(1695025770.999586) vcan0 000001D0#0000000000000000
(1695025770.999723) vcan0 000001A3#0000000403000000
(1695025770.999770) vcan0 0000014A#0000000000000000
(1695025771.018434) vcan0 000001D0#0000000000000000
(1695025771.018608) vcan0 000001A3#0000000403000000
(1695025771.018675) vcan0 0000014A#0000000000000000
(1695025771.035277) vcan0 000001D0#0000000000000000
(1695025771.035510) vcan0 000001A3#0000000403000000
(1695025771.035561) vcan0 0000014A#0000000000000000
(1695025771.050626) vcan0 000001D0#0000000000000000
(1695025771.050805) vcan0 000001A3#0000000403000000
(1695025771.050865) vcan0 0000014A#0000000000000000
(1695025771.066569) vcan0 000001D0#0000000000000000
(1695025771.066746) vcan0 000001A3#0000000403000000
(1695025771.066797) vcan0 0000014A#0000000000000000
(1695025771.084042) vcan0 000001D0#0000000000000000
(1695025771.084391) vcan0 000001A3#0000000403000000
(1695025771.084456) vcan0 0000014A#0000000000000000
(1695025771.101444) vcan0 000001D0#0000000000000000
(1695025771.101724) vcan0 000001A3#0000000403000000
(1695025771.101842) vcan0 0000014A#0000000000000000
(1695025771.116625) vcan0 000001D0#0000000000000000
(1695025771.116766) vcan0 000001A3#0000000403000000
(1695025771.116813) vcan0 0000014A#0000000000000000
(1695025771.132704) vcan0 000001D0#0000000000000000
(1695025771.132864) vcan0 000001A3#0000000403000000
(1695025771.133006) vcan0 0000014A#0000000000000000
(1695025771.150322) vcan0 000001D0#0000000000000000
(1695025771.150517) vcan0 000001A3#0000000403000000
(1695025771.150594) vcan0 0000014A#0000000000000000
(1695025771.166152) vcan0 000001D0#0000000000000000
(1695025771.166324) vcan0 000001A3#0000000403000000
(1695025771.166373) vcan0 0000014A#0000000000000000
(1695025771.181684) vcan0 000001D0#0000000000000000
(1695025771.186881) vcan0 000001A3#0000000403000000
(1695025771.187167) vcan0 0000014A#0000000000000000
(1695025771.197560) vcan0 000001D0#0000000000000000
(1695025771.197701) vcan0 000001A3#0000000403000000
(1695025771.197748) vcan0 0000014A#0000000000000000
(1695025771.213820) vcan0 000001D0#0000000000000000
(1695025771.214084) vcan0 000001A3#0000000403000000
(1695025771.214131) vcan0 0000014A#0000000000000000
(1695025771.230507) vcan0 000001D0#0000000000000000
(1695025771.230673) vcan0 000001A3#0000000403000000
(1695025771.230724) vcan0 0000014A#0000000000000000
(1695025771.245777) vcan0 000001D0#0000000000000000
(1695025771.245968) vcan0 000001A3#0000000403000000
(1695025771.246017) vcan0 0000014A#0000000000000000
(1695025771.262605) vcan0 000001D0#0000000000000000
(1695025771.262773) vcan0 000001A3#0000000403000000
(1695025771.262814) vcan0 0000014A#0000000000000000
(1695025771.278407) vcan0 000001D0#0000000000000000
(1695025771.279539) vcan0 000001A3#0000000403000000
(1695025771.279603) vcan0 0000014A#0000000000000000
(1695025771.294338) vcan0 000001D0#0000000000000000
(1695025771.294622) vcan0 000001A3#0000000403000000
(1695025771.294746) vcan0 0000014A#0000000000000000
(1695025771.309875) vcan0 000001D0#0000000000000000
(1695025771.310083) vcan0 000001A3#0000000403000000
(1695025771.310149) vcan0 0000014A#0000000000000000
(1695025771.329212) vcan0 000001D0#0000000000000000
(1695025771.329424) vcan0 000001A3#0000000403000000
(1695025771.329482) vcan0 0000014A#0000000000000000
(1695025771.349610) vcan0 000001D0#0000000000000000
(1695025771.350368) vcan0 000001A3#0000000403000000
(1695025771.350459) vcan0 0000014A#0000000000000000
(1695025771.366145) vcan0 000001D0#0000000000000000
(1695025771.366298) vcan0 000001A3#0000000403000000
(1695025771.366348) vcan0 0000014A#0000000000000000
(1695025771.384732) vcan0 000001D0#0000000000000000
(1695025771.384894) vcan0 000001A3#0000000403000000
(1695025771.384932) vcan0 0000014A#0000000000000000
(1695025771.401181) vcan0 000001D0#0000000000000000
(1695025771.401336) vcan0 000001A3#0000000403000000
(1695025771.401385) vcan0 0000014A#0000000000000000
(1695025771.417499) vcan0 000001D0#0000000000000000
(1695025771.417761) vcan0 000001A3#0000000403000000
(1695025771.417825) vcan0 0000014A#0000000000000000
(1695025771.434697) vcan0 000001D0#0000000000000000
(1695025771.434845) vcan0 000001A3#0000000403000000
(1695025771.434902) vcan0 0000014A#0000000000000000
(1695025771.450663) vcan0 000001D0#0000000000000000
(1695025771.450892) vcan0 000001A3#0000000403000000
(1695025771.450953) vcan0 0000014A#0000000000000000
(1695025771.466610) vcan0 000001D0#0000000000000000
(1695025771.466762) vcan0 000001A3#0000000403000000
(1695025771.466809) vcan0 0000014A#0000000000000000
(1695025771.482665) vcan0 000001D0#0000000000000000
(1695025771.482814) vcan0 000001A3#0000000403000000
(1695025771.482864) vcan0 0000014A#0000000000000000
(1695025771.501048) vcan0 000001D0#0000000000000000
(1695025771.501362) vcan0 000001A3#0000000403000000
(1695025771.501432) vcan0 0000014A#0000000000000000
(1695025771.518969) vcan0 000001D0#0000000000000000
(1695025771.522621) vcan0 000001A3#0000000403000000
(1695025771.522833) vcan0 0000014A#0000000000000000
(1695025771.539927) vcan0 000001D0#0000000000000000
(1695025771.540067) vcan0 000001A3#0000000403000000
(1695025771.540115) vcan0 0000014A#0000000000000000
(1695025771.556226) vcan0 000001D0#0000000000000000
(1695025771.556410) vcan0 000001A3#0000000403000000
(1695025771.556463) vcan0 0000014A#0000000000000000
(1695025771.578686) vcan0 000001D0#0000000000000000
(1695025771.578864) vcan0 000001A3#0000000403000000
(1695025771.578915) vcan0 0000014A#0000000000000000
(1695025771.603479) vcan0 000001D0#0000000000000000
(1695025771.603825) vcan0 000001A3#0000000403000000
(1695025771.603891) vcan0 0000014A#0000000000000000
(1695025771.629964) vcan0 000001D0#0000000000000000
(1695025771.630136) vcan0 000001A3#0000000403000000
(1695025771.630188) vcan0 0000014A#0000000000000000
(1695025771.645213) vcan0 000001D0#0000000000000000
(1695025771.645371) vcan0 000001A3#0000000403000000
(1695025771.645420) vcan0 0000014A#0000000000000000
(1695025771.661267) vcan0 000001D0#0000000000000000
(1695025771.661481) vcan0 000001A3#0000000403000000
(1695025771.661533) vcan0 0000014A#0000000000000000
(1695025771.676853) vcan0 000001D0#0000000000000000
(1695025771.677079) vcan0 000001A3#0000000403000000
(1695025771.677135) vcan0 0000014A#0000000000000000
(1695025771.692621) vcan0 000001D0#0000000000000000
(1695025771.692827) vcan0 000001A3#0000000403000000
(1695025771.692956) vcan0 0000014A#0000000000000000
(1695025771.708676) vcan0 000001D0#0000000000000000
(1695025771.708872) vcan0 000001A3#0000000403000000
(1695025771.708939) vcan0 0000014A#0000000000000000
(1695025771.724968) vcan0 000001D0#0000000000000000
(1695025771.725229) vcan0 000001A3#0000000403000000
(1695025771.725307) vcan0 0000014A#0000000000000000
(1695025771.750917) vcan0 000001D0#0000000000000000
(1695025771.751276) vcan0 000001A3#0000000403000000
(1695025771.751350) vcan0 0000014A#0000000000000000
(1695025771.774790) vcan0 000001D0#0000000000000000
(1695025771.775000) vcan0 000001A3#0000000403000000
(1695025771.775054) vcan0 0000014A#0000000000000000
(1695025771.799677) vcan0 000001D0#0000000000000000
(1695025771.799933) vcan0 000001A3#0000000403000000
(1695025771.799987) vcan0 0000014A#0000000000000000
(1695025771.818552) vcan0 000001D0#0000000000000000
(1695025771.818854) vcan0 000001A3#0000000403000000
(1695025771.818915) vcan0 0000014A#0000000000000000
(1695025771.834122) vcan0 000001D0#0000000000000000
(1695025771.834408) vcan0 000001A3#0000000403000000
(1695025771.834478) vcan0 0000014A#0000000000000000
(1695025771.849970) vcan0 000001D0#0000000000000000
(1695025771.850211) vcan0 000001A3#0000000403000000
(1695025771.850267) vcan0 0000014A#0000000000000000
(1695025771.865979) vcan0 000001D0#0000000000000000
(1695025771.866161) vcan0 000001A3#0000000403000000
(1695025771.866217) vcan0 0000014A#0000000000000000
(1695025771.881245) vcan0 000001D0#0000000000000000
(1695025771.881401) vcan0 000001A3#0000000403000000
(1695025771.881449) vcan0 0000014A#0000000000000000
(1695025771.897191) vcan0 000001D0#0000000000000000
(1695025771.897336) vcan0 000001A3#0000000403000000
(1695025771.897420) vcan0 0000014A#0000000000000000
(1695025771.914604) vcan0 000001D0#0000000000000000
(1695025771.914796) vcan0 000001A3#0000000403000000
(1695025771.914847) vcan0 0000014A#0000000000000000
(1695025771.930745) vcan0 000001D0#0000000000000000
(1695025771.931092) vcan0 000001A3#0000000403000000
(1695025771.931172) vcan0 0000014A#0000000000000000
(1695025771.947640) vcan0 000001D0#0002000400080010
(1695025771.947812) vcan0 000001A3#0000000403000000
(1695025771.947863) vcan0 0000014A#0000000000000000
(1695025771.963077) vcan0 000001D0#0002000400080010
(1695025771.963334) vcan0 000001A3#0000000403000000
(1695025771.963381) vcan0 0000014A#0000000000000000
(1695025771.979681) vcan0 000001D0#0002000400080010
(1695025771.979857) vcan0 000001A3#0000000403000000
(1695025771.979900) vcan0 0000014A#0000000000000000
(1695025771.995117) vcan0 000001D0#0002000400080010
(1695025771.995262) vcan0 000001A3#0000000403000000
(1695025771.995303) vcan0 0000014A#0000000000000000
(1695025772.015334) vcan0 000001D0#0002000400080010
(1695025772.015506) vcan0 000001A3#0000000403000000
(1695025772.015571) vcan0 0000014A#0000000000000000
(1695025772.028226) vcan0 000001D0#0002000400080010
(1695025772.028496) vcan0 000001A3#0000000403000000
(1695025772.028673) vcan0 0000014A#0000000000000000
(1695025772.060056) vcan0 000001D0#0002000400080010
(1695025772.060253) vcan0 000001A3#0000000403000000
(1695025772.060300) vcan0 0000014A#0000000000000000
(1695025772.075359) vcan0 000001D0#0002000400080010
(1695025772.075540) vcan0 000001A3#0000000403000000
(1695025772.075583) vcan0 0000014A#0000000000000000
(1695025772.091255) vcan0 000001D0#0002000400080010
(1695025772.091413) vcan0 000001A3#0000000403000000
(1695025772.091461) vcan0 0000014A#0000000000000000
(1695025772.109535) vcan0 000001D0#0002000400080010
(1695025772.109689) vcan0 000001A3#0000000403000000
(1695025772.109728) vcan0 0000014A#0000000000000000
(1695025772.124987) vcan0 000001D0#0002000400080010
(1695025772.125157) vcan0 000001A3#0000000403000000
(1695025772.125280) vcan0 0000014A#0000000000000000
(1695025772.142771) vcan0 000001D0#0002000400080010
(1695025772.143118) vcan0 000001A3#0000000403000000
(1695025772.143195) vcan0 0000014A#0000000000000000
(1695025772.155300) vcan0 000001D0#0002000400080010
(1695025772.155585) vcan0 000001A3#0000000403000000
(1695025772.155656) vcan0 0000014A#0000000000000000
(1695025772.176967) vcan0 000001D0#0002000400080010
(1695025772.177157) vcan0 000001A3#0000000403000000
(1695025772.177211) vcan0 0000014A#0000000000000000
(1695025772.197428) vcan0 000001D0#0002000400080010
(1695025772.197593) vcan0 000001A3#0000000403000000
(1695025772.197672) vcan0 0000014A#0000000000000000
(1695025772.209695) vcan0 000001D0#0002000400080010
(1695025772.210115) vcan0 000001A3#0000000403000000
(1695025772.210169) vcan0 0000014A#0000000000000000
(1695025772.230271) vcan0 000001D0#0002000400080010
(1695025772.230414) vcan0 000001A3#0000000403000000
(1695025772.230462) vcan0 0000014A#0000000000000000
(1695025772.248199) vcan0 000001D0#0002000400080010
(1695025772.248459) vcan0 000001A3#0000000403000000
(1695025772.248560) vcan0 0000014A#0000000000000000
(1695025772.265311) vcan0 000001D0#0002000400080010
(1695025772.265453) vcan0 000001A3#0000000403000000
(1695025772.265502) vcan0 0000014A#0000000000000000
(1695025772.282814) vcan0 000001D0#0002000400080010
(1695025772.283039) vcan0 000001A3#0000000403000000
(1695025772.283189) vcan0 0000014A#0000000000000000
(1695025772.299987) vcan0 000001D0#0002000400080010
(1695025772.300168) vcan0 000001A3#0000000403000000
(1695025772.300220) vcan0 0000014A#0000000000000000
(1695025772.321247) vcan0 000001D0#0002000400080010
(1695025772.321449) vcan0 000001A3#0000000403000000
(1695025772.321507) vcan0 0000014A#0000000000000000
(1695025772.336326) vcan0 000001D0#0002000400080010
(1695025772.336530) vcan0 000001A3#0000000403000000
(1695025772.336647) vcan0 0000014A#0000000000000000
(1695025772.364025) vcan0 000001D0#0000000000000000
(1695025772.364187) vcan0 000001A3#0000000403000000
(1695025772.364227) vcan0 0000014A#0000000000000000
(1695025772.382017) vcan0 000001D0#0000000000000000
(1695025772.382466) vcan0 000001A3#0000000403000000
(1695025772.382528) vcan0 0000014A#0000000000000000
(1695025772.401564) vcan0 000001D0#0000000000000000
(1695025772.401704) vcan0 000001A3#0000000403000000
(1695025772.401743) vcan0 0000014A#0000000000000000
(1695025772.416988) vcan0 000001D0#0000000000000000
(1695025772.417338) vcan0 000001A3#0000000403000000
(1695025772.417390) vcan0 0000014A#0000000000000000
(1695025772.432064) vcan0 000001D0#0000000000000000
(1695025772.432220) vcan0 000001A3#0000000403000000
(1695025772.432269) vcan0 0000014A#0000000000000000
(1695025772.448465) vcan0 000001D0#0000000000000000
(1695025772.448799) vcan0 000001A3#0000000403000000
(1695025772.448866) vcan0 0000014A#0000000000000000
(1695025772.470573) vcan0 000001D0#0000000000000000
(1695025772.470776) vcan0 000001A3#0000000403000000
(1695025772.470832) vcan0 0000014A#0000000000000000
(1695025772.486835) vcan0 000001D0#0000000000000000
(1695025772.487086) vcan0 000001A3#0000000403000000
(1695025772.487145) vcan0 0000014A#0000000000000000
(1695025772.505580) vcan0 000001D0#0000000000000000
(1695025772.507457) vcan0 000001A3#0000000403000000
(1695025772.507649) vcan0 0000014A#0000000000000000
(1695025772.525349) vcan0 000001D0#0000000000000000
(1695025772.529124) vcan0 000001A3#0000000403000000
(1695025772.529192) vcan0 0000014A#0000000000000000
(1695025772.540441) vcan0 000001D0#0000000000000000
(1695025772.541063) vcan0 000001A3#0000000403000000
(1695025772.541117) vcan0 0000014A#0000000000000000
(1695025772.556679) vcan0 000001D0#0000000000000000
(1695025772.556838) vcan0 000001A3#0000000403000000
(1695025772.556888) vcan0 0000014A#0000000000000000
(1695025772.579942) vcan0 000001D0#0000000000000000
(1695025772.580279) vcan0 000001A3#0000000403000000
(1695025772.580420) vcan0 0000014A#0000000000000000
(1695025772.595204) vcan0 000001D0#0000000000000000
(1695025772.595346) vcan0 000001A3#0000000403000000
(1695025772.595407) vcan0 0000014A#0000000000000000
(1695025772.610849) vcan0 000001D0#0000000000000000
(1695025772.611004) vcan0 000001A3#0000000403000000
(1695025772.611047) vcan0 0000014A#0000000000000000
(1695025772.626909) vcan0 000001D0#0000000000000000
(1695025772.628776) vcan0 000001A3#0000000403000000
(1695025772.628862) vcan0 0000014A#0000000000000000
(1695025772.642649) vcan0 000001D0#0000000000000000
(1695025772.642799) vcan0 000001A3#0000000403000000
(1695025772.642838) vcan0 0000014A#0000000000000000
(1695025772.664299) vcan0 000001D0#0000000000000000
(1695025772.664641) vcan0 000001A3#0000000403000000
(1695025772.664743) vcan0 0000014A#0000000000000000
(1695025772.685180) vcan0 000001D0#0000000000000000
(1695025772.685701) vcan0 000001A3#0000000403000000
(1695025772.685782) vcan0 0000014A#0000000000000000
(1695025772.701365) vcan0 000001D0#0000000000000000
(1695025772.701514) vcan0 000001A3#0000000403000000
(1695025772.701562) vcan0 0000014A#0000000000000000
(1695025772.716796) vcan0 000001D0#0000000000000000
(1695025772.716952) vcan0 000001A3#0000000403000000
(1695025772.717001) vcan0 0000014A#0000000000000000
(1695025772.732751) vcan0 000001D0#0000000000000000
(1695025772.733014) vcan0 000001A3#0000000403000000
(1695025772.733062) vcan0 0000014A#0000000000000000
(1695025772.751821) vcan0 000001D0#0000000000000000
(1695025772.752021) vcan0 000001A3#0000000403000000
(1695025772.752064) vcan0 0000014A#0000000000000000
(1695025772.767833) vcan0 000001D0#0000000000000000
(1695025772.768086) vcan0 000001A3#0000000403000000
(1695025772.768144) vcan0 0000014A#0000000000000000
(1695025772.786626) vcan0 000001D0#0000000000000000
(1695025772.786948) vcan0 000001A3#0000000403000000
(1695025772.787119) vcan0 0000014A#0000000000000000
(1695025772.801597) vcan0 000001D0#0000000000000000
(1695025772.801739) vcan0 000001A3#0000000403000000
(1695025772.801779) vcan0 0000014A#0000000000000000
(1695025772.817812) vcan0 000001D0#0000000000000000
(1695025772.817959) vcan0 000001A3#0000000403000000
(1695025772.818009) vcan0 0000014A#0000000000000000
(1695025772.834185) vcan0 000001D0#0000000000000000
(1695025772.834354) vcan0 000001A3#0000000403000000
(1695025772.834451) vcan0 0000014A#0000000000000000
(1695025772.864628) vcan0 000001D0#0000000000000000
(1695025772.864788) vcan0 000001A3#0000000403000000
(1695025772.864842) vcan0 0000014A#0000000000000000
(1695025772.886672) vcan0 000001D0#0000000000000000
(1695025772.886969) vcan0 000001A3#0000000403000000
(1695025772.887045) vcan0 0000014A#0000000000000000
(1695025772.904705) vcan0 000001D0#0000000000000000
(1695025772.904870) vcan0 000001A3#0000000403000000
(1695025772.904912) vcan0 0000014A#0000000000000000
(1695025772.919838) vcan0 000001D0#0000000000000000
(1695025772.920031) vcan0 000001A3#0000000403000000
(1695025772.920080) vcan0 0000014A#0000000000000000
(1695025772.935812) vcan0 000001D0#0000000000000000
(1695025772.935999) vcan0 000001A3#0000000403000000
(1695025772.936052) vcan0 0000014A#0000000000000000
(1695025772.952040) vcan0 000001D0#0000000000000000
(1695025772.952237) vcan0 000001A3#0000000403000000
(1695025772.952283) vcan0 0000014A#0000000000000000
(1695025772.967910) vcan0 000001D0#0000000000000000
(1695025772.968097) vcan0 000001A3#0000000403000000
(1695025772.968154) vcan0 0000014A#0000000000000000
(1695025772.984345) vcan0 000001D0#0000000000000000
(1695025772.984701) vcan0 000001A3#0000000403000000
(1695025772.984999) vcan0 0000014A#0000000000000000
(1695025773.007214) vcan0 000001D0#0000000000000000
(1695025773.007373) vcan0 000001A3#0000000403000000
(1695025773.007429) vcan0 0000014A#0000000000000000
(1695025773.030247) vcan0 000001D0#0000000000000000
(1695025773.030759) vcan0 000001A3#0000000403000000
(1695025773.030829) vcan0 0000014A#0000000000000000
(1695025773.054916) vcan0 000001D0#0000000000000000
(1695025773.055129) vcan0 000001A3#0000000403000000
(1695025773.055731) vcan0 0000014A#0000000000000000
(1695025773.077460) vcan0 000001D0#0000000000000000
(1695025773.081087) vcan0 000001A3#0000000403000000
(1695025773.081176) vcan0 0000014A#0000000000000000
(1695025773.102603) vcan0 000001D0#0000000000000000
(1695025773.103466) vcan0 000001A3#0000000403000000
(1695025773.103560) vcan0 0000014A#0000000000000000
(1695025773.117379) vcan0 000001D0#0000000000000000
(1695025773.117548) vcan0 000001A3#0000000403000000
(1695025773.117605) vcan0 0000014A#0000000000000000
(1695025773.136246) vcan0 000001D0#0000000000000000
(1695025773.136691) vcan0 000001A3#0000000403000000
(1695025773.136820) vcan0 0000014A#0000000000000000
(1695025773.152099) vcan0 000001D0#0000000000000000
(1695025773.152288) vcan0 000001A3#0000000403000000
(1695025773.152348) vcan0 0000014A#0000000000000000
(1695025773.168146) vcan0 000001D0#0000000000000000
(1695025773.168355) vcan0 000001A3#0000000403000000
(1695025773.168415) vcan0 0000014A#0000000000000000
(1695025773.184303) vcan0 000001D0#0000000000000000
(1695025773.184571) vcan0 000001A3#0000000403000000
(1695025773.184683) vcan0 0000014A#0000000000000000
(1695025773.201090) vcan0 000001D0#0000000000000000
(1695025773.201289) vcan0 000001A3#0000000403000000
(1695025773.201350) vcan0 0000014A#0000000000000000
(1695025773.217738) vcan0 000001D0#0000000000000000
(1695025773.217950) vcan0 000001A3#0000000403000000
(1695025773.218079) vcan0 0000014A#0000000000000000
(1695025773.234467) vcan0 000001D0#0000000000000000
(1695025773.234678) vcan0 000001A3#0000000403000000
(1695025773.234740) vcan0 0000014A#0000000000000000
(1695025773.253399) vcan0 000001D0#0000000000000000
(1695025773.255267) vcan0 000001A3#0000000403000000
(1695025773.255832) vcan0 0000014A#0000000000000000
(1695025773.270834) vcan0 000001D0#0000000000000000
(1695025773.271009) vcan0 000001A3#0000000403000000
(1695025773.271349) vcan0 0000014A#0000000000000000
(1695025773.286311) vcan0 000001D0#0000000000000000
(1695025773.286591) vcan0 000001A3#0000000403000000
(1695025773.286790) vcan0 0000014A#0000000000000000
(1695025773.317407) vcan0 000001D0#0000000000000000
(1695025773.317608) vcan0 000001A3#0000000403000000
(1695025773.317666) vcan0 0000014A#0000000000000000
(1695025773.330497) vcan0 000001D0#0000000000000000
(1695025773.330692) vcan0 000001A3#0000000403000000
(1695025773.330752) vcan0 0000014A#0000000000000000
(1695025773.345799) vcan0 000001D0#0000000000000000
(1695025773.346050) vcan0 000001A3#0000000403000000
(1695025773.346105) vcan0 0000014A#0000000000000000
(1695025773.361885) vcan0 000001D0#0000000000000000
(1695025773.362074) vcan0 000001A3#0000000403000000
(1695025773.362127) vcan0 0000014A#0000000000000000
(1695025773.379076) vcan0 000001D0#0000000000000000
(1695025773.379259) vcan0 000001A3#0000000403000000
(1695025773.379311) vcan0 0000014A#0000000000000000
(1695025773.395499) vcan0 000001D0#0000000000000000
(1695025773.395752) vcan0 000001A3#0000000403000000
(1695025773.395808) vcan0 0000014A#0000000000000000
(1695025773.411257) vcan0 000001D0#0000000000000000
(1695025773.411677) vcan0 000001A3#0000000403000000
(1695025773.411768) vcan0 0000014A#0000000000000000
(1695025773.426886) vcan0 000001D0#0000000000000000
(1695025773.427111) vcan0 000001A3#0000000403000000
(1695025773.427170) vcan0 0000014A#0000000000000000
(1695025773.446816) vcan0 000001D0#0000000000000000
(1695025773.446989) vcan0 000001A3#0000000403000000
(1695025773.447040) vcan0 0000014A#0000000000000000
(1695025773.461854) vcan0 000001D0#0000000000000000
(1695025773.462269) vcan0 000001A3#0000000403000000
(1695025773.462377) vcan0 0000014A#0000000000000000
(1695025773.490925) vcan0 000001D0#0000000000000000
(1695025773.491183) vcan0 000001A3#0000000403000000
(1695025773.491245) vcan0 0000014A#0000000000000000
(1695025773.508663) vcan0 000001D0#0000000000000000
(1695025773.508940) vcan0 000001A3#0000000403000000
(1695025773.509003) vcan0 0000014A#0000000000000000
(1695025773.525730) vcan0 000001D0#0000000000000000
(1695025773.525974) vcan0 000001A3#0000000403000000
(1695025773.526045) vcan0 0000014A#0000000000000000
(1695025773.541776) vcan0 000001D0#0000000000000000
(1695025773.541915) vcan0 000001A3#0000000403000000
(1695025773.541964) vcan0 0000014A#0000000000000000
(1695025773.557993) vcan0 000001D0#0000000000000000
(1695025773.558143) vcan0 000001A3#0000000403000000
(1695025773.558191) vcan0 0000014A#0000000000000000
(1695025773.575567) vcan0 000001D0#0000000000000000
(1695025773.575722) vcan0 000001A3#0000000403000000
(1695025773.575769) vcan0 0000014A#0000000000000000
(1695025773.593116) vcan0 000001D0#0000000000000000
(1695025773.593401) vcan0 000001A3#0000000403000000
(1695025773.593461) vcan0 0000014A#0000000000000000
(1695025773.605659) vcan0 000001D0#0000000000000000
(1695025773.605816) vcan0 000001A3#0000000403000000
(1695025773.605858) vcan0 0000014A#0000000000000000
(1695025773.624241) vcan0 000001D0#0000000000000000
(1695025773.624405) vcan0 000001A3#0000000403000000
(1695025773.624449) vcan0 0000014A#0000000000000000
(1695025773.639748) vcan0 000001D0#0000000000000000
(1695025773.639908) vcan0 000001A3#0000000403000000
(1695025773.639958) vcan0 0000014A#0000000000000000
(1695025773.659492) vcan0 000001D0#0000000000000000
(1695025773.659688) vcan0 000001A3#0000000403000000
(1695025773.659741) vcan0 0000014A#0000000000000000
(1695025773.679167) vcan0 000001D0#0000000000000000
(1695025773.679303) vcan0 000001A3#0000000403000000
(1695025773.679351) vcan0 0000014A#0000000000000000
(1695025773.701136) vcan0 000001D0#0000000000000000
(1695025773.701358) vcan0 000001A3#0000000403000000
(1695025773.701413) vcan0 0000014A#0000000000000000
(1695025773.723441) vcan0 000001D0#0000000000000000
(1695025773.723833) vcan0 000001A3#0000000403000000
(1695025773.723900) vcan0 0000014A#0000000000000000
(1695025773.738598) vcan0 000001D0#0000000000000000
(1695025773.738806) vcan0 000001A3#0000000403000000
(1695025773.739565) vcan0 0000014A#0000000000000000
(1695025773.755210) vcan0 000001D0#0000000000000000
(1695025773.755666) vcan0 000001A3#0000000403000000
(1695025773.755747) vcan0 0000014A#0000000000000000
(1695025773.777999) vcan0 000001D0#0000000000000000
(1695025773.778136) vcan0 000001A3#0000000403000000
(1695025773.778174) vcan0 0000014A#0000000000000000
(1695025773.793693) vcan0 000001D0#0000000000000000
(1695025773.794087) vcan0 000001A3#0000000403000000
(1695025773.794259) vcan0 0000014A#0000000000000000
(1695025773.809648) vcan0 000001D0#0000000000000000
(1695025773.809794) vcan0 000001A3#0000000403000000
(1695025773.809832) vcan0 0000014A#0000000000000000
(1695025773.825785) vcan0 000001D0#0000000000000000
(1695025773.826531) vcan0 000001A3#0000000403000000
(1695025773.826604) vcan0 0000014A#0000000000000000
(1695025773.841706) vcan0 000001D0#0034006800D001A0
(1695025773.841838) vcan0 000001A3#0000000403000000
(1695025773.841886) vcan0 0000014A#0000000000000000
(1695025773.857699) vcan0 000001D0#0034006800D001A0
(1695025773.857840) vcan0 000001A3#0000000403000000
(1695025773.857880) vcan0 0000014A#0000000000000000
(1695025773.874804) vcan0 000001D0#0034006800D001A0
(1695025773.876057) vcan0 000001A3#0000000403000000
(1695025773.879529) vcan0 0000014A#0000000000000000
(1695025773.898085) vcan0 000001D0#0034006800D001A0
(1695025773.898273) vcan0 000001A3#0000000403000000
(1695025773.898324) vcan0 0000014A#0000000000000000
(1695025773.924120) vcan0 000001D0#0034006800D001A0
(1695025773.924514) vcan0 000001A3#0000000403000000
(1695025773.926831) vcan0 0000014A#0000000000000000
(1695025773.939697) vcan0 000001D0#0034006800D001A0
(1695025773.939944) vcan0 000001A3#0000000403000000
(1695025773.939999) vcan0 0000014A#0000000000000000
(1695025773.953667) vcan0 000001D0#0034006800D001A0
(1695025773.953970) vcan0 000001A3#0000000403000000
(1695025773.954136) vcan0 0000014A#0000000000000000
(1695025773.969913) vcan0 000001D0#0034006800D001A0
(1695025773.970093) vcan0 000001A3#0000000403000000
(1695025773.970145) vcan0 0000014A#0000000000000000
(1695025773.987045) vcan0 000001D0#0034006800D001A0
(1695025773.987247) vcan0 000001A3#0000000403000000
(1695025773.987301) vcan0 0000014A#0000000000000000
(1695025774.001615) vcan0 000001D0#0034006800D001A0
(1695025774.001801) vcan0 000001A3#0000000403000000
(1695025774.001850) vcan0 0000014A#0000000000000000
(1695025774.017702) vcan0 000001D0#0034006800D001A0
(1695025774.017872) vcan0 000001A3#0000000403000000
(1695025774.017923) vcan0 0000014A#0000000000000000
(1695025774.033937) vcan0 000001D0#0034006800D001A0
(1695025774.034181) vcan0 000001A3#0000000403000000
(1695025774.034255) vcan0 0000014A#0000000000000000
(1695025774.050307) vcan0 000001D0#007200E401C80390
(1695025774.050635) vcan0 000001A3#0000000804000000
(1695025774.050695) vcan0 0000014A#0000000000000000
(1695025774.065577) vcan0 000001D0#007200E401C80390
(1695025774.065724) vcan0 000001A3#0000000804000000
(1695025774.065772) vcan0 0000014A#0000000000000000
(1695025774.081552) vcan0 000001D0#007200E401C80390
(1695025774.081742) vcan0 000001A3#0000000804000000
(1695025774.081794) vcan0 0000014A#0000000000000000
(1695025774.097618) vcan0 000001D0#007200E401C80390
(1695025774.097776) vcan0 000001A3#0000000804000000
(1695025774.097817) vcan0 0000014A#0000000000000000
(1695025774.114245) vcan0 000001D0#007200E401C80390
(1695025774.114425) vcan0 000001A3#0000000804000000
(1695025774.114475) vcan0 0000014A#0000000000000000
(1695025774.129595) vcan0 000001D0#007200E401C80390
(1695025774.129732) vcan0 000001A3#0000000804000000
(1695025774.129778) vcan0 0000014A#0000000000000000
(1695025774.145652) vcan0 000001D0#007200E401C80390
(1695025774.145811) vcan0 000001A3#0000000804000000
(1695025774.145863) vcan0 0000014A#0000000000000000
(1695025774.161562) vcan0 000001D0#007200E401C80390
(1695025774.161727) vcan0 000001A3#0000000804000000
(1695025774.161800) vcan0 0000014A#0000000000000000
(1695025774.177602) vcan0 000001D0#007200E401C80390
(1695025774.177744) vcan0 000001A3#0000000804000000
(1695025774.177791) vcan0 0000014A#0000000000000000
(1695025774.193653) vcan0 000001D0#007200E401C80390
(1695025774.194015) vcan0 000001A3#0000000804000000
(1695025774.194124) vcan0 0000014A#0000000000000000
(1695025774.209597) vcan0 000001D0#007200E401C80390
(1695025774.209896) vcan0 000001A3#0000000804000000
(1695025774.209947) vcan0 0000014A#0000000000000000
(1695025774.225587) vcan0 000001D0#007200E401C80390
(1695025774.225788) vcan0 000001A3#0000000804000000
(1695025774.225838) vcan0 0000014A#0000000000000000
(1695025774.241566) vcan0 000001D0#007200E401C80390
(1695025774.241709) vcan0 000001A3#0000000804000000
(1695025774.241762) vcan0 0000014A#0000000000000000
(1695025774.257805) vcan0 000001D0#01A4034806900D20
(1695025774.258023) vcan0 000001A3#0000000804000000
(1695025774.258070) vcan0 0000014A#0000000000000000
(1695025774.274201) vcan0 000001D0#01A4034806900D20
(1695025774.274356) vcan0 000001A3#0000000804000000
(1695025774.274405) vcan0 0000014A#0000000000000000
(1695025774.290068) vcan0 000001D0#01A4034806900D20
(1695025774.290222) vcan0 000001A3#0000000804000000
(1695025774.290310) vcan0 0000014A#0000000000000000
(1695025774.309942) vcan0 000001D0#01A4034806900D20
(1695025774.310105) vcan0 000001A3#0000000804000000
(1695025774.310155) vcan0 0000014A#0000000000000000
(1695025774.329314) vcan0 000001D0#01A4034806900D20
(1695025774.329461) vcan0 000001A3#0000000804000000
(1695025774.329509) vcan0 0000014A#0000000000000000
(1695025774.345261) vcan0 000001D0#01A4034806900D20
(1695025774.345406) vcan0 000001A3#0000000804000000
(1695025774.345454) vcan0 0000014A#0000000000000000
(1695025774.360764) vcan0 000001D0#01A4034806900D20
(1695025774.360921) vcan0 000001A3#0000000804000000
(1695025774.360978) vcan0 0000014A#0000000000000000
(1695025774.381559) vcan0 000001D0#01A4034806900D20
(1695025774.381702) vcan0 000001A3#0000000804000000
(1695025774.381748) vcan0 0000014A#0000000000000000
(1695025774.392605) vcan0 000001D0#01A4034806900D20
(1695025774.392791) vcan0 000001A3#0000000804000000
(1695025774.392842) vcan0 0000014A#0000000000000000
(1695025774.408721) vcan0 000001D0#01A4034806900D20
(1695025774.408881) vcan0 000001A3#0000000804000000
(1695025774.408931) vcan0 0000014A#0000000000000000
(1695025774.424789) vcan0 000001D0#01A4034806900D20
(1695025774.425026) vcan0 000001A3#0000000804000000
(1695025774.425138) vcan0 0000014A#0000000000000000
(1695025774.442967) vcan0 000001D0#01A4034806900D20
(1695025774.443225) vcan0 000001A3#0000000804000000
(1695025774.443416) vcan0 0000014A#0000000000000000
(1695025774.456978) vcan0 000001D0#0200040008001000
(1695025774.457110) vcan0 000001A3#0000000804000000
(1695025774.457149) vcan0 0000014A#0000000000000000
(1695025774.472716) vcan0 000001D0#0200040008001000
(1695025774.472958) vcan0 000001A3#0000000804000000
(1695025774.473007) vcan0 0000014A#0000000000000000
(1695025774.490683) vcan0 000001D0#0200040008001000
(1695025774.490883) vcan0 000001A3#0000000804000000
(1695025774.490931) vcan0 0000014A#0000000000000000
(1695025774.504913) vcan0 000001D0#0200040008001000
(1695025774.505106) vcan0 000001A3#0000000804000000
(1695025774.505162) vcan0 0000014A#0000000000000000
(1695025774.524343) vcan0 000001D0#0200040008001000
(1695025774.524480) vcan0 000001A3#0000000804000000
(1695025774.524529) vcan0 0000014A#0000000000000000
(1695025774.543988) vcan0 000001D0#0200040008001000
(1695025774.544387) vcan0 000001A3#0000000804000000
(1695025774.544461) vcan0 0000014A#0000000000000000
(1695025774.565816) vcan0 000001D0#0200040008001000
(1695025774.565953) vcan0 000001A3#0000000804000000
(1695025774.565999) vcan0 0000014A#0000000000000000
(1695025774.581667) vcan0 000001D0#0200040008001000
(1695025774.581838) vcan0 000001A3#0000000804000000
(1695025774.581888) vcan0 0000014A#0000000000000000
(1695025774.597719) vcan0 000001D0#0200040008001000
(1695025774.597894) vcan0 000001A3#0000000804000000
(1695025774.597948) vcan0 0000014A#0000000000000000
(1695025774.614589) vcan0 000001D0#0200040008001000
(1695025774.614740) vcan0 000001A3#0000000804000000
(1695025774.614786) vcan0 0000014A#0000000000000000
(1695025774.629635) vcan0 000001D0#0200040008001000
(1695025774.629803) vcan0 000001A3#0000000804000000
(1695025774.630964) vcan0 0000014A#0000000000000000
(1695025774.645986) vcan0 000001D0#0200040008001000
(1695025774.646303) vcan0 000001A3#0000000804000000
(1695025774.646418) vcan0 0000014A#0000000000000000
(1695025774.661583) vcan0 000001D0#0210042008401080
(1695025774.661790) vcan0 000001A3#0000000804000000
(1695025774.661851) vcan0 0000014A#0000000000000000
(1695025774.678585) vcan0 000001D0#0210042008401080
(1695025774.678886) vcan0 000001A3#0000000804000000
(1695025774.678942) vcan0 0000014A#0000000000000000
(1695025774.718779) vcan0 000001D0#0210042008401080
(1695025774.718960) vcan0 000001A3#0000000804000000
(1695025774.719010) vcan0 0000014A#0000000000000000
(1695025774.733012) vcan0 000001D0#0210042008401080
(1695025774.733166) vcan0 000001A3#0000000804000000
(1695025774.733217) vcan0 0000014A#0000000000000000
(1695025774.749010) vcan0 000001D0#0210042008401080
(1695025774.749185) vcan0 000001A3#0000000804000000
(1695025774.749236) vcan0 0000014A#0000000000000000
(1695025774.764893) vcan0 000001D0#0210042008401080
(1695025774.765047) vcan0 000001A3#0000000804000000
(1695025774.765095) vcan0 0000014A#0000000000000000
(1695025774.780688) vcan0 000001D0#0210042008401080
(1695025774.780906) vcan0 000001A3#0000000804000000
(1695025774.780960) vcan0 0000014A#0000000000000000
(1695025774.796760) vcan0 000001D0#0210042008401080
(1695025774.796928) vcan0 000001A3#0000000804000000
(1695025774.796982) vcan0 0000014A#0000000000000000
(1695025774.812837) vcan0 000001D0#0210042008401080
(1695025774.812985) vcan0 000001A3#0000000804000000
(1695025774.813075) vcan0 0000014A#0000000000000000
(1695025774.830309) vcan0 000001D0#0210042008401080
(1695025774.830476) vcan0 000001A3#0000000804000000
(1695025774.830531) vcan0 0000014A#0000000000000000
(1695025774.845895) vcan0 000001D0#0210042008401080
(1695025774.846038) vcan0 000001A3#0000000804000000
(1695025774.846099) vcan0 0000014A#0000000000000000
(1695025774.861739) vcan0 000001D0#0200040008001000
(1695025774.862192) vcan0 000001A3#0000000804000000
(1695025774.862250) vcan0 0000014A#0000000000000000
(1695025774.876679) vcan0 000001D0#0200040008001000
(1695025774.876871) vcan0 000001A3#0000000804000000
(1695025774.876924) vcan0 0000014A#0000000000000000
(1695025774.895455) vcan0 000001D0#0200040008001000
(1695025774.895599) vcan0 000001A3#0000000804000000
(1695025774.895638) vcan0 0000014A#0000000000000000
(1695025774.908719) vcan0 000001D0#0200040008001000
(1695025774.908872) vcan0 000001A3#0000000804000000
(1695025774.908913) vcan0 0000014A#0000000000000000
(1695025774.925149) vcan0 000001D0#0200040008001000
(1695025774.925303) vcan0 000001A3#0000000804000000
(1695025774.925345) vcan0 0000014A#0000000000000000
(1695025774.941144) vcan0 000001D0#0200040008001000
(1695025774.941372) vcan0 000001A3#0000000804000000
(1695025774.941427) vcan0 0000014A#0000000000000000
(1695025774.958605) vcan0 000001D0#0200040008001000
(1695025774.958902) vcan0 000001A3#0000000804000000
(1695025774.958959) vcan0 0000014A#0000000000000000
(1695025774.974344) vcan0 000001D0#0200040008001000
(1695025774.974560) vcan0 000001A3#0000000804000000
(1695025774.974617) vcan0 0000014A#0000000000000000
(1695025774.991325) vcan0 000001D0#0200040008001000
(1695025774.991487) vcan0 000001A3#0000000804000000
(1695025774.991538) vcan0 0000014A#0000000000000000
(1695025775.007298) vcan0 000001D0#0200040008001000
(1695025775.007468) vcan0 000001A3#0000000804000000
(1695025775.007519) vcan0 0000014A#0000000000000000
(1695025775.022213) vcan0 000001D0#0200040008001000
(1695025775.022427) vcan0 000001A3#0000000804000000
(1695025775.022480) vcan0 0000014A#0000000000000000
(1695025775.038679) vcan0 000001D0#0200040008001000
(1695025775.039034) vcan0 000001A3#0000000804000000
(1695025775.039100) vcan0 0000014A#0000000000000000
(1695025775.053895) vcan0 000001D0#0200040008001000
(1695025775.054237) vcan0 000001A3#0000000804000000
(1695025775.054319) vcan0 0000014A#0000000000000000
(1695025775.069675) vcan0 000001D0#01E203C407880F10
(1695025775.069813) vcan0 000001A3#0000000804000000
(1695025775.069854) vcan0 0000014A#0000000000000000
(1695025775.085723) vcan0 000001D0#01E203C407880F10
(1695025775.086155) vcan0 000001A3#0000000804000000
(1695025775.086244) vcan0 0000014A#0000000000000000
(1695025775.102043) vcan0 000001D0#01E203C407880F10
(1695025775.102352) vcan0 000001A3#0000000804000000
(1695025775.102412) vcan0 0000014A#0000000000000000
(1695025775.117751) vcan0 000001D0#01E203C407880F10
(1695025775.117925) vcan0 000001A3#0000000804000000
(1695025775.118097) vcan0 0000014A#0000000000000000
(1695025775.142174) vcan0 000001D0#01E203C407880F10
(1695025775.142415) vcan0 000001A3#0000000804000000
(1695025775.142550) vcan0 0000014A#0000000000000000
(1695025775.166968) vcan0 000001D0#01E203C407880F10
(1695025775.167158) vcan0 000001A3#0000000804000000
(1695025775.167229) vcan0 0000014A#0000000000000000
(1695025775.182945) vcan0 000001D0#01E203C407880F10
(1695025775.183110) vcan0 000001A3#0000000804000000
(1695025775.183164) vcan0 0000014A#0000000000000000
(1695025775.199130) vcan0 000001D0#01E203C407880F10
(1695025775.199272) vcan0 000001A3#0000000804000000
(1695025775.199321) vcan0 0000014A#0000000000000000
(1695025775.215038) vcan0 000001D0#01E203C407880F10
(1695025775.215181) vcan0 000001A3#0000000804000000
(1695025775.215229) vcan0 0000014A#0000000000000000
(1695025775.230645) vcan0 000001D0#01E203C407880F10
(1695025775.230784) vcan0 000001A3#0000000804000000
(1695025775.230830) vcan0 0000014A#0000000000000000
(1695025775.246673) vcan0 000001D0#01E203C407880F10
(1695025775.246825) vcan0 000001A3#0000000804000000
(1695025775.246872) vcan0 0000014A#0000000000000000
(1695025775.262816) vcan0 000001D0#01E203C407880F10
(1695025775.263008) vcan0 000001A3#0000000804000000
(1695025775.263086) vcan0 0000014A#0000000000000000
(1695025775.278776) vcan0 000001D0#01BE037C06F80DF0
(1695025775.279030) vcan0 000001A3#0000000804000000
(1695025775.279118) vcan0 0000014A#0000000000000000
(1695025775.294793) vcan0 000001D0#01BE037C06F80DF0
(1695025775.294964) vcan0 000001A3#0000000804000000
(1695025775.295005) vcan0 0000014A#0000000000000000
(1695025775.312922) vcan0 000001D0#01BE037C06F80DF0
(1695025775.313067) vcan0 000001A3#0000000804000000
(1695025775.313144) vcan0 0000014A#0000000000000000
(1695025775.334964) vcan0 000001D0#01BE037C06F80DF0
(1695025775.335110) vcan0 000001A3#0000000804000000
(1695025775.335160) vcan0 0000014A#0000000000000000
(1695025775.350823) vcan0 000001D0#01BE037C06F80DF0
(1695025775.350972) vcan0 000001A3#0000000804000000
(1695025775.351019) vcan0 0000014A#0000000000000000
(1695025775.366797) vcan0 000001D0#01BE037C06F80DF0
(1695025775.366963) vcan0 000001A3#0000000804000000
(1695025775.367011) vcan0 0000014A#0000000000000000
(1695025775.382725) vcan0 000001D0#01BE037C06F80DF0
(1695025775.382964) vcan0 000001A3#0000000804000000
(1695025775.383020) vcan0 0000014A#0000000000000000
(1695025775.398898) vcan0 000001D0#01BE037C06F80DF0
(1695025775.399074) vcan0 000001A3#0000000804000000
(1695025775.399124) vcan0 0000014A#0000000000000000
(1695025775.414730) vcan0 000001D0#01BE037C06F80DF0
(1695025775.414861) vcan0 000001A3#0000000804000000
(1695025775.414907) vcan0 0000014A#0000000000000000
(1695025775.430646) vcan0 000001D0#01BE037C06F80DF0
(1695025775.430832) vcan0 000001A3#0000000804000000
(1695025775.430881) vcan0 0000014A#0000000000000000
(1695025775.446826) vcan0 000001D0#01BE037C06F80DF0
(1695025775.446976) vcan0 000001A3#0000000804000000
(1695025775.447026) vcan0 0000014A#0000000000000000
(1695025775.462811) vcan0 000001D0#01BE037C06F80DF0
(1695025775.462992) vcan0 000001A3#0000000804000000
(1695025775.463074) vcan0 0000014A#0000000000000000
(1695025775.478981) vcan0 000001D0#017002E005C00B80
(1695025775.479137) vcan0 000001A3#0000000804000000
(1695025775.479184) vcan0 0000014A#0000000000000000
(1695025775.494883) vcan0 000001D0#017002E005C00B80
(1695025775.495043) vcan0 000001A3#0000000804000000
(1695025775.495096) vcan0 0000014A#0000000000000000
(1695025775.510696) vcan0 000001D0#017002E005C00B80
(1695025775.510830) vcan0 000001A3#0000000804000000
(1695025775.510876) vcan0 0000014A#0000000000000000
(1695025775.529914) vcan0 000001D0#017002E005C00B80
(1695025775.530121) vcan0 000001A3#0000000804000000
(1695025775.530174) vcan0 0000014A#0000000000000000
(1695025775.543820) vcan0 000001D0#017002E005C00B80
(1695025775.544012) vcan0 000001A3#0000000804000000
(1695025775.547538) vcan0 0000014A#0000000000000000
(1695025775.567774) vcan0 000001D0#017002E005C00B80
(1695025775.567992) vcan0 000001A3#0000000804000000
(1695025775.568054) vcan0 0000014A#0000000000000000
(1695025775.582989) vcan0 000001D0#017002E005C00B80
(1695025775.583392) vcan0 000001A3#0000000804000000
(1695025775.583612) vcan0 0000014A#0000000000000000
(1695025775.600701) vcan0 000001D0#017002E005C00B80
(1695025775.600869) vcan0 000001A3#0000000804000000
(1695025775.600923) vcan0 0000014A#0000000000000000
(1695025775.614237) vcan0 000001D0#017002E005C00B80
(1695025775.614407) vcan0 000001A3#0000000804000000
(1695025775.614462) vcan0 0000014A#0000000000000000
(1695025775.630085) vcan0 000001D0#017002E005C00B80
(1695025775.630244) vcan0 000001A3#0000000804000000
(1695025775.630299) vcan0 0000014A#0000000000000000
(1695025775.646196) vcan0 000001D0#017002E005C00B80
(1695025775.646366) vcan0 000001A3#0000000804000000
(1695025775.646423) vcan0 0000014A#0000000000000000
(1695025775.662051) vcan0 000001D0#017002E005C00B80
(1695025775.662241) vcan0 000001A3#0000000804000000
(1695025775.662301) vcan0 0000014A#0000000000000000
(1695025775.678952) vcan0 000001D0#017002E005C00B80
(1695025775.679245) vcan0 000001A3#0000000804000000
(1695025775.679312) vcan0 0000014A#0000000000000000
(1695025775.702179) vcan0 000001D0#012C025804B00960
(1695025775.702597) vcan0 000001A3#0000000804000000
(1695025775.702726) vcan0 0000014A#0000000000000000
(1695025775.718495) vcan0 000001D0#012C025804B00960
(1695025775.718704) vcan0 000001A3#0000000804000000
(1695025775.718776) vcan0 0000014A#0000000000000000
(1695025775.737603) vcan0 000001D0#012C025804B00960
(1695025775.737803) vcan0 000001A3#0000000804000000
(1695025775.737890) vcan0 0000014A#0000000000000000
(1695025775.751564) vcan0 000001D0#012C025804B00960
(1695025775.752345) vcan0 000001A3#0000000804000000
(1695025775.752469) vcan0 0000014A#0000000000000000
(1695025775.769984) vcan0 000001D0#012C025804B00960
(1695025775.770391) vcan0 000001A3#0000000804000000
(1695025775.770523) vcan0 0000014A#0000000000000000
(1695025775.788693) vcan0 000001D0#012C025804B00960
(1695025775.788922) vcan0 000001A3#0000000804000000
(1695025775.788986) vcan0 0000014A#0000000000000000
(1695025775.801681) vcan0 000001D0#012C025804B00960
(1695025775.801921) vcan0 000001A3#0000000804000000
(1695025775.802001) vcan0 0000014A#0000000000000000
(1695025775.817794) vcan0 000001D0#012C025804B00960
(1695025775.818050) vcan0 000001A3#0000000804000000
(1695025775.818151) vcan0 0000014A#0000000000000000
(1695025775.834243) vcan0 000001D0#012C025804B00960
(1695025775.834422) vcan0 000001A3#0000000804000000
(1695025775.834527) vcan0 0000014A#0000000000000000
(1695025775.849910) vcan0 000001D0#012C025804B00960
(1695025775.850168) vcan0 000001A3#0000000804000000
(1695025775.850238) vcan0 0000014A#0000000000000000
(1695025775.869677) vcan0 000001D0#012C025804B00960
(1695025775.869932) vcan0 000001A3#0000000804000000
(1695025775.870016) vcan0 0000014A#0000000000000000
(1695025775.889638) vcan0 000001D0#010E021C04380870
(1695025775.889839) vcan0 000001A3#0000000804000000
(1695025775.889903) vcan0 0000014A#0000000000000000
(1695025775.904988) vcan0 000001D0#010E021C04380870
(1695025775.905254) vcan0 000001A3#0000000804000000
(1695025775.905324) vcan0 0000014A#0000000000000000
(1695025775.920900) vcan0 000001D0#010E021C04380870
(1695025775.921085) vcan0 000001A3#0000000804000000
(1695025775.921146) vcan0 0000014A#0000000000000000
(1695025775.958286) vcan0 000001D0#010E021C04380870
(1695025775.958461) vcan0 000001A3#0000000804000000
(1695025775.958517) vcan0 0000014A#0000000000000000
(1695025775.974106) vcan0 000001D0#010E021C04380870
(1695025775.974309) vcan0 000001A3#0000000804000000
(1695025775.974576) vcan0 0000014A#0000000000000000
(1695025775.989973) vcan0 000001D0#010E021C04380870
(1695025775.990274) vcan0 000001A3#0000000804000000
(1695025775.990358) vcan0 0000014A#0000000000000000
(1695025776.005750) vcan0 000001D0#010E021C04380870
(1695025776.006211) vcan0 000001A3#0000000804000000
(1695025776.006277) vcan0 0000014A#0000000000000000
(1695025776.024954) vcan0 000001D0#010E021C04380870
(1695025776.025201) vcan0 000001A3#0000000804000000
(1695025776.025270) vcan0 0000014A#0000000000000000
(1695025776.038875) vcan0 000001D0#010E021C04380870
(1695025776.039070) vcan0 000001A3#0000000804000000
(1695025776.039128) vcan0 0000014A#0000000000000000
(1695025776.053806) vcan0 000001D0#010E021C04380870
(1695025776.053943) vcan0 000001A3#0000000804000000
(1695025776.053982) vcan0 0000014A#0000000000000000
(1695025776.071929) vcan0 000001D0#010E021C04380870
(1695025776.072100) vcan0 000001A3#0000000804000000
(1695025776.072155) vcan0 0000014A#0000000000000000
(1695025776.089032) vcan0 000001D0#010E021C04380870
(1695025776.089287) vcan0 000001A3#0000000804000000
(1695025776.089375) vcan0 0000014A#0000000000000000
(1695025776.107162) vcan0 000001D0#011A0234046808D0
(1695025776.107297) vcan0 000001A3#0000000804000000
(1695025776.107335) vcan0 0000014A#0000000000000000
(1695025776.127726) vcan0 000001D0#011A0234046808D0
(1695025776.127887) vcan0 000001A3#0000000804000000
(1695025776.127942) vcan0 0000014A#0000000000000000
(1695025776.148003) vcan0 000001D0#011A0234046808D0
(1695025776.148206) vcan0 000001A3#0000000804000000
(1695025776.148262) vcan0 0000014A#0000000000000000
(1695025776.167776) vcan0 000001D0#011A0234046808D0
(1695025776.168294) vcan0 000001A3#0000000804000000
(1695025776.168367) vcan0 0000014A#0000000000000000
(1695025776.188513) vcan0 000001D0#011A0234046808D0
(1695025776.188804) vcan0 000001A3#0000000804000000
(1695025776.188907) vcan0 0000014A#0000000000000000
(1695025776.206895) vcan0 000001D0#011A0234046808D0
(1695025776.207106) vcan0 000001A3#0000000804000000
(1695025776.207159) vcan0 0000014A#0000000000000000
(1695025776.222090) vcan0 000001D0#011A0234046808D0
(1695025776.222234) vcan0 000001A3#0000000804000000
(1695025776.222315) vcan0 0000014A#0000000000000000
(1695025776.242153) vcan0 000001D0#011A0234046808D0
(1695025776.242410) vcan0 000001A3#0000000804000000
(1695025776.242469) vcan0 0000014A#0000000000000000
(1695025776.258020) vcan0 000001D0#011A0234046808D0
(1695025776.258194) vcan0 000001A3#0000000804000000
(1695025776.258296) vcan0 0000014A#0000000000000000
(1695025776.273878) vcan0 000001D0#011A0234046808D0
(1695025776.274038) vcan0 000001A3#0000000804000000
(1695025776.274091) vcan0 0000014A#0000000000000000
(1695025776.289707) vcan0 000001D0#011A0234046808D0
(1695025776.289909) vcan0 000001A3#0000000804000000
(1695025776.290774) vcan0 0000014A#0000000000000000
(1695025776.305548) vcan0 000001D0#0100020004000800
(1695025776.305765) vcan0 000001A3#0000000804000000
(1695025776.305826) vcan0 0000014A#0000000000000000
(1695025776.322149) vcan0 000001D0#0100020004000800
(1695025776.322764) vcan0 000001A3#0000000804000000
(1695025776.322846) vcan0 0000014A#0000000000000000
(1695025776.339054) vcan0 000001D0#0100020004000800
(1695025776.339237) vcan0 000001A3#0000000804000000
(1695025776.339291) vcan0 0000014A#0000000000000000
(1695025776.355266) vcan0 000001D0#0100020004000800
(1695025776.355547) vcan0 000001A3#0000000804000000
(1695025776.355619) vcan0 0000014A#0000000000000000
(1695025776.378043) vcan0 000001D0#0100020004000800
(1695025776.378215) vcan0 000001A3#0000000804000000
(1695025776.378266) vcan0 0000014A#0000000000000000
(1695025776.394027) vcan0 000001D0#0100020004000800
(1695025776.394262) vcan0 000001A3#0000000804000000
(1695025776.394333) vcan0 0000014A#0000000000000000
(1695025776.419096) vcan0 000001D0#0100020004000800
(1695025776.419269) vcan0 000001A3#0000000804000000
(1695025776.419319) vcan0 0000014A#0000000000000000
(1695025776.438720) vcan0 000001D0#0100020004000800
(1695025776.438875) vcan0 000001A3#0000000804000000
(1695025776.438925) vcan0 0000014A#0000000000000000
(1695025776.453906) vcan0 000001D0#0100020004000800
(1695025776.456934) vcan0 000001A3#0000000804000000
(1695025776.457055) vcan0 0000014A#0000000000000000
(1695025776.469620) vcan0 000001D0#0100020004000800
(1695025776.470675) vcan0 000001A3#0000000804000000
(1695025776.470748) vcan0 0000014A#0000000000000000
(1695025776.485619) vcan0 000001D0#0100020004000800
(1695025776.485768) vcan0 000001A3#0000000804000000
(1695025776.485808) vcan0 0000014A#0000000000000000
(1695025776.505682) vcan0 000001D0#0100020004000800
(1695025776.506235) vcan0 000001A3#0000000804000000
(1695025776.506345) vcan0 0000014A#0000000000000000
(1695025776.521025) vcan0 000001D0#01140228045008A0
(1695025776.521149) vcan0 000001A3#0000000804000000
(1695025776.521224) vcan0 0000014A#0000000000000000
(1695025776.537757) vcan0 000001D0#01140228045008A0
(1695025776.541053) vcan0 000001A3#0000000804000000
(1695025776.541247) vcan0 0000014A#0000000000000000
(1695025776.553989) vcan0 000001D0#01140228045008A0
(1695025776.554192) vcan0 000001A3#0000000804000000
(1695025776.554247) vcan0 0000014A#0000000000000000
(1695025776.582155) vcan0 000001D0#01140228045008A0
(1695025776.582307) vcan0 000001A3#0000000804000000
(1695025776.582358) vcan0 0000014A#0000000000000000
(1695025776.597650) vcan0 000001D0#01140228045008A0
(1695025776.597816) vcan0 000001A3#0000000804000000
(1695025776.597868) vcan0 0000014A#0000000000000000
(1695025776.613645) vcan0 000001D0#01140228045008A0
(1695025776.613806) vcan0 000001A3#0000000804000000
(1695025776.613857) vcan0 0000014A#0000000000000000
(1695025776.630988) vcan0 000001D0#01140228045008A0
(1695025776.631158) vcan0 000001A3#0000000804000000
(1695025776.631215) vcan0 0000014A#0000000000000000
(1695025776.646826) vcan0 000001D0#01140228045008A0
(1695025776.647062) vcan0 000001A3#0000000804000000
(1695025776.647114) vcan0 0000014A#0000000000000000
(1695025776.662725) vcan0 000001D0#01140228045008A0
(1695025776.664759) vcan0 000001A3#0000000804000000
(1695025776.664900) vcan0 0000014A#0000000000000000
(1695025776.678682) vcan0 000001D0#01140228045008A0
(1695025776.678837) vcan0 000001A3#0000000804000000
(1695025776.679069) vcan0 0000014A#0000000000000000
(1695025776.694770) vcan0 000001D0#01140228045008A0
(1695025776.694936) vcan0 000001A3#0000000804000000
(1695025776.694990) vcan0 0000014A#0000000000000000
(1695025776.710587) vcan0 000001D0#01140228045008A0
(1695025776.710777) vcan0 000001A3#0000000804000000
(1695025776.710833) vcan0 0000014A#0000000000000000
(1695025776.726914) vcan0 000001D0#011A0234046808D0
(1695025776.727120) vcan0 000001A3#0000000804000000
(1695025776.727568) vcan0 0000014A#0000000000000000
(1695025776.742581) vcan0 000001D0#011A0234046808D0
(1695025776.742731) vcan0 000001A3#0000000804000000
(1695025776.742780) vcan0 0000014A#0000000000000000
(1695025776.759606) vcan0 000001D0#011A0234046808D0
(1695025776.759880) vcan0 000001A3#0000000804000000
(1695025776.759943) vcan0 0000014A#0000000000000000
(1695025776.775958) vcan0 000001D0#011A0234046808D0
(1695025776.776588) vcan0 000001A3#0000000804000000
(1695025776.776689) vcan0 0000014A#0000000000000000
(1695025776.794346) vcan0 000001D0#011A0234046808D0
(1695025776.794492) vcan0 000001A3#0000000804000000
(1695025776.794539) vcan0 0000014A#0000000000000000
(1695025776.817353) vcan0 000001D0#011A0234046808D0
(1695025776.818589) vcan0 000001A3#0000000804000000
(1695025776.818709) vcan0 0000014A#0000000000000000
(1695025776.833301) vcan0 000001D0#011A0234046808D0
(1695025776.833626) vcan0 000001A3#0000000804000000
(1695025776.833689) vcan0 0000014A#0000000000000000
(1695025776.849368) vcan0 000001D0#011A0234046808D0
(1695025776.849514) vcan0 000001A3#0000000804000000
(1695025776.849561) vcan0 0000014A#0000000000000000
(1695025776.867590) vcan0 000001D0#011A0234046808D0
(1695025776.867862) vcan0 000001A3#0000000804000000
(1695025776.868179) vcan0 0000014A#0000000000000000
(1695025776.884832) vcan0 000001D0#011A0234046808D0
(1695025776.884979) vcan0 000001A3#0000000804000000
(1695025776.885028) vcan0 0000014A#0000000000000000
(1695025776.901184) vcan0 000001D0#011A0234046808D0
(1695025776.901415) vcan0 000001A3#0000000804000000
(1695025776.901479) vcan0 0000014A#0000000000000000
(1695025776.917955) vcan0 000001D0#011A0234046808D0
(1695025776.918442) vcan0 000001A3#0000000804000000
(1695025776.918592) vcan0 0000014A#0000000000000000
(1695025776.935748) vcan0 000001D0#0126024C04980930
(1695025776.936289) vcan0 000001A3#0000000804000000
(1695025776.936536) vcan0 0000014A#0000000000000000
(1695025776.951938) vcan0 000001D0#0126024C04980930
(1695025776.952293) vcan0 000001A3#0000000804000000
(1695025776.952429) vcan0 0000014A#0000000000000000
(1695025776.973383) vcan0 000001D0#0126024C04980930
(1695025776.973976) vcan0 000001A3#0000000804000000
(1695025776.974082) vcan0 0000014A#0000000000000000
(1695025776.990048) vcan0 000001D0#0126024C04980930
(1695025776.990239) vcan0 000001A3#0000000804000000
(1695025776.990292) vcan0 0000014A#0000000000000000
(1695025777.013162) vcan0 000001D0#0126024C04980930
(1695025777.013425) vcan0 000001A3#0000000804000000
(1695025777.013490) vcan0 0000014A#0000000000000000
(1695025777.032909) vcan0 000001D0#0126024C04980930
(1695025777.033610) vcan0 000001A3#0000000804000000
(1695025777.033731) vcan0 0000014A#0000000000000000
(1695025777.049454) vcan0 000001D0#0126024C04980930
(1695025777.049668) vcan0 000001A3#0000000804000000
(1695025777.049713) vcan0 0000014A#0000000000000000
(1695025777.066867) vcan0 000001D0#0126024C04980930
(1695025777.067201) vcan0 000001A3#0000000804000000
(1695025777.067286) vcan0 0000014A#0000000000000000
(1695025777.083535) vcan0 000001D0#0126024C04980930
(1695025777.083672) vcan0 000001A3#0000000804000000
(1695025777.083718) vcan0 0000014A#0000000000000000
(1695025777.098606) vcan0 000001D0#0126024C04980930
(1695025777.099041) vcan0 000001A3#0000000804000000
(1695025777.099106) vcan0 0000014A#0000000000000000
(1695025777.116189) vcan0 000001D0#0126024C04980930
(1695025777.116430) vcan0 000001A3#0000000804000000
(1695025777.116482) vcan0 0000014A#0000000000000000
(1695025777.130867) vcan0 000001D0#0126024C04980930
(1695025777.131483) vcan0 000001A3#0000000804000000
(1695025777.131836) vcan0 0000014A#0000000000000000
(1695025777.151115) vcan0 000001D0#01D003A007400E80
(1695025777.151344) vcan0 000001A3#0000000804000000
(1695025777.151444) vcan0 0000014A#0000000000000000
(1695025777.167282) vcan0 000001D0#01D003A007400E80
(1695025777.167500) vcan0 000001A3#0000000804000000
(1695025777.167562) vcan0 0000014A#0000000000000000
(1695025777.183502) vcan0 000001D0#01D003A007400E80
(1695025777.183676) vcan0 000001A3#0000000804000000
(1695025777.183726) vcan0 0000014A#0000000000000000
(1695025777.210362) vcan0 000001D0#01D003A007400E80
(1695025777.210697) vcan0 000001A3#0000000804000000
(1695025777.210792) vcan0 0000014A#0000000000000000
(1695025777.224071) vcan0 000001D0#01D003A007400E80
(1695025777.224228) vcan0 000001A3#0000000804000000
(1695025777.224281) vcan0 0000014A#0000000000000000
(1695025777.239876) vcan0 000001D0#01D003A007400E80
(1695025777.240102) vcan0 000001A3#0000000804000000
(1695025777.240162) vcan0 0000014A#0000000000000000
(1695025777.256224) vcan0 000001D0#01D003A007400E80
(1695025777.256549) vcan0 000001A3#0000000804000000
(1695025777.257405) vcan0 0000014A#0000000000000000
(1695025777.278339) vcan0 000001D0#01D003A007400E80
(1695025777.278684) vcan0 000001A3#0000000804000000
(1695025777.278744) vcan0 0000014A#0000000000000000
(1695025777.288742) vcan0 000001D0#01D003A007400E80
(1695025777.288972) vcan0 000001A3#0000000804000000
(1695025777.289026) vcan0 0000014A#0000000000000000
(1695025777.304004) vcan0 000001D0#01D003A007400E80
(1695025777.304228) vcan0 000001A3#0000000804000000
(1695025777.304283) vcan0 0000014A#0000000000000000
(1695025777.319772) vcan0 000001D0#01D003A007400E80
(1695025777.319956) vcan0 000001A3#0000000804000000
(1695025777.320014) vcan0 0000014A#0000000000000000
(1695025777.336919) vcan0 000001D0#01D003A007400E80
(1695025777.337234) vcan0 000001A3#0000000804000000
(1695025777.337321) vcan0 0000014A#0000000000000000
(1695025777.355075) vcan0 000001D0#025204A409481290
(1695025777.356277) vcan0 000001A3#0000000804000000
(1695025777.356356) vcan0 0000014A#0000000000000000
(1695025777.375370) vcan0 000001D0#025204A409481290
(1695025777.375496) vcan0 000001A3#0000000804000000
(1695025777.375579) vcan0 0000014A#0000000000000000
(1695025777.391752) vcan0 000001D0#025204A409481290
(1695025777.392111) vcan0 000001A3#0000000804000000
(1695025777.392214) vcan0 0000014A#0000000000000000
(1695025777.420976) vcan0 000001D0#025204A409481290
(1695025777.421227) vcan0 000001A3#0000000804000000
(1695025777.421287) vcan0 0000014A#0000000000000000
(1695025777.430036) vcan0 000001D0#025204A409481290
(1695025777.430186) vcan0 000001A3#0000000804000000
(1695025777.430241) vcan0 0000014A#0000000000000000
(1695025777.445864) vcan0 000001D0#025204A409481290
(1695025777.446185) vcan0 000001A3#0000000804000000
(1695025777.446262) vcan0 0000014A#0000000000000000
(1695025777.461695) vcan0 000001D0#025204A409481290
(1695025777.461899) vcan0 000001A3#0000000804000000
(1695025777.461952) vcan0 0000014A#0000000000000000
(1695025777.479732) vcan0 000001D0#025204A409481290
(1695025777.479895) vcan0 000001A3#0000000804000000
(1695025777.479949) vcan0 0000014A#0000000000000000
(1695025777.495574) vcan0 000001D0#025204A409481290
(1695025777.495783) vcan0 000001A3#0000000804000000
(1695025777.495839) vcan0 0000014A#0000000000000000
(1695025777.511798) vcan0 000001D0#025204A409481290
(1695025777.511965) vcan0 000001A3#0000000804000000
(1695025777.512014) vcan0 0000014A#0000000000000000
(1695025777.531058) vcan0 000001D0#025204A409481290
(1695025777.531225) vcan0 000001A3#0000000804000000
(1695025777.531281) vcan0 0000014A#0000000000000000
(1695025777.546661) vcan0 000001D0#025204A409481290
(1695025777.546796) vcan0 000001A3#0000000804000000
(1695025777.546841) vcan0 0000014A#0000000000000000
(1695025777.563707) vcan0 000001D0#041C0838107020E0
(1695025777.563914) vcan0 000001A3#0000000804000000
(1695025777.564107) vcan0 0000014A#0000000000000000
(1695025777.587032) vcan0 000001D0#041C0838107020E0
(1695025777.587271) vcan0 000001A3#0000000804000000
(1695025777.587332) vcan0 0000014A#0000000000000000
(1695025777.613073) vcan0 000001D0#041C0838107020E0
(1695025777.613373) vcan0 000001A3#0000000804000000
(1695025777.613473) vcan0 0000014A#0000000000000000
(1695025777.630379) vcan0 000001D0#041C0838107020E0
(1695025777.630521) vcan0 000001A3#0000000804000000
(1695025777.630574) vcan0 0000014A#0000000000000000
(1695025777.645721) vcan0 000001D0#041C0838107020E0
(1695025777.645861) vcan0 000001A3#0000000804000000
(1695025777.645907) vcan0 0000014A#0000000000000000
(1695025777.663056) vcan0 000001D0#041C0838107020E0
(1695025777.663293) vcan0 000001A3#0000000804000000
(1695025777.663348) vcan0 0000014A#0000000000000000
(1695025777.677544) vcan0 000001D0#041C0838107020E0
(1695025777.677687) vcan0 000001A3#0000000804000000
(1695025777.677734) vcan0 0000014A#0000000000000000
(1695025777.693885) vcan0 000001D0#041C0838107020E0
(1695025777.694030) vcan0 000001A3#0000000804000000
(1695025777.694076) vcan0 0000014A#0000000000000000
(1695025777.712143) vcan0 000001D0#041C0838107020E0
(1695025777.712340) vcan0 000001A3#0000000804000000
(1695025777.712396) vcan0 0000014A#0000000000000000
(1695025777.727599) vcan0 000001D0#041C0838107020E0
(1695025777.727743) vcan0 000001A3#0000000804000000
(1695025777.727791) vcan0 0000014A#0000000000000000
(1695025777.745255) vcan0 000001D0#041C0838107020E0
(1695025777.745419) vcan0 000001A3#0000000804000000
(1695025777.745474) vcan0 0000014A#0000000000000000
(1695025777.760954) vcan0 000001D0#041C0838107020E0
(1695025777.761190) vcan0 000001A3#0000000804000000
(1695025777.761292) vcan0 0000014A#0000000000000000
(1695025777.780774) vcan0 000001D0#05D00BA017402E80
(1695025777.780957) vcan0 000001A3#0000000804000000
(1695025777.781006) vcan0 0000014A#0000000000000000
(1695025777.792641) vcan0 000001D0#05D00BA017402E80
(1695025777.792918) vcan0 000001A3#0000000804000000
(1695025777.793019) vcan0 0000014A#0000000000000000
(1695025777.814900) vcan0 000001D0#05D00BA017402E80
(1695025777.815074) vcan0 000001A3#0000000804000000
(1695025777.815126) vcan0 0000014A#0000000000000000
(1695025777.832488) vcan0 000001D0#05D00BA017402E80
(1695025777.832737) vcan0 000001A3#0000000804000000
(1695025777.832797) vcan0 0000014A#0000000000000000
(1695025777.848177) vcan0 000001D0#05D00BA017402E80
(1695025777.848408) vcan0 000001A3#0000000804000000
(1695025777.848461) vcan0 0000014A#0000000000000000
(1695025777.865063) vcan0 000001D0#05D00BA017402E80
(1695025777.865247) vcan0 000001A3#0000000804000000
(1695025777.865303) vcan0 0000014A#0000000000000000
(1695025777.882050) vcan0 000001D0#05D00BA017402E80
(1695025777.882178) vcan0 000001A3#0000000804000000
(1695025777.882221) vcan0 0000014A#0000000000000000
(1695025777.898810) vcan0 000001D0#05D00BA017402E80
(1695025777.898968) vcan0 000001A3#0000000804000000
(1695025777.899018) vcan0 0000014A#0000000000000000
(1695025777.913756) vcan0 000001D0#05D00BA017402E80
(1695025777.914144) vcan0 000001A3#0000000804000000
(1695025777.914237) vcan0 0000014A#0000000000000000
(1695025777.929670) vcan0 000001D0#05D00BA017402E80
(1695025777.929821) vcan0 000001A3#0000000804000000
(1695025777.929867) vcan0 0000014A#0000000000000000
(1695025777.945931) vcan0 000001D0#05D00BA017402E80
(1695025777.946317) vcan0 000001A3#0000000804000000
(1695025777.946415) vcan0 0000014A#0000000000000000
(1695025777.962094) vcan0 000001D0#05D00BA017402E80
(1695025777.962326) vcan0 000001A3#0000000804000000
(1695025777.962395) vcan0 0000014A#0000000000000000
(1695025777.978001) vcan0 000001D0#081E103C207840F0
(1695025777.978168) vcan0 000001A3#0000000804000000
(1695025777.978230) vcan0 0000014A#0000000000000000
(1695025777.993797) vcan0 000001D0#081E103C207840F0
(1695025777.994016) vcan0 000001A3#0000000804000000
(1695025777.994061) vcan0 0000014A#0000000000000000
(1695025778.009461) vcan0 000001D0#081E103C207840F0
(1695025778.009641) vcan0 000001A3#0000000804000000
(1695025778.009676) vcan0 0000014A#0000000000000000
(1695025778.029484) vcan0 000001D0#081E103C207840F0
(1695025778.029583) vcan0 000001A3#0000000804000000
(1695025778.029612) vcan0 0000014A#0000000000000000
(1695025778.045103) vcan0 000001D0#081E103C207840F0
(1695025778.045875) vcan0 000001A3#0000000804000000
(1695025778.045973) vcan0 0000014A#0000000000000000
(1695025778.060510) vcan0 000001D0#081E103C207840F0
(1695025778.060813) vcan0 000001A3#0000000804000000
(1695025778.060878) vcan0 0000014A#0000000000000000
(1695025778.080422) vcan0 000001D0#081E103C207840F0
(1695025778.080915) vcan0 000001A3#0000000804000000
(1695025778.080980) vcan0 0000014A#0000000000000000
(1695025778.095598) vcan0 000001D0#081E103C207840F0
(1695025778.095819) vcan0 000001A3#0000000804000000
(1695025778.095870) vcan0 0000014A#0000000000000000
(1695025778.111771) vcan0 000001D0#081E103C207840F0
(1695025778.111895) vcan0 000001A3#0000000804000000
(1695025778.111949) vcan0 0000014A#0000000000000000
(1695025778.127457) vcan0 000001D0#081E103C207840F0
(1695025778.127621) vcan0 000001A3#0000000804000000
(1695025778.127728) vcan0 0000014A#0000000000000000
(1695025778.144480) vcan0 000001D0#081E103C207840F0
(1695025778.144640) vcan0 000001A3#0000000804000000
(1695025778.144671) vcan0 0000014A#0000000000000000
(1695025778.159721) vcan0 000001D0#081E103C207840F0
(1695025778.159897) vcan0 000001A3#0000000804000000
(1695025778.159937) vcan0 0000014A#0000000000000000
(1695025778.181001) vcan0 000001D0#081E103C207840F0
(1695025778.181407) vcan0 000001A3#0000000804000000
(1695025778.181508) vcan0 0000014A#0000000000000000
(1695025778.196959) vcan0 000001D0#0B4816902D205A40
(1695025778.197135) vcan0 000001A3#0000000804000000
(1695025778.197197) vcan0 0000014A#0000000000000000
(1695025778.212787) vcan0 000001D0#0B4816902D205A40
(1695025778.213209) vcan0 000001A3#0000000804000000
(1695025778.213343) vcan0 0000014A#0000000000000000
(1695025778.228492) vcan0 000001D0#0B4816902D205A40
(1695025778.230513) vcan0 000001A3#0000000804000000
(1695025778.230561) vcan0 0000014A#0000000000000000
(1695025778.244615) vcan0 000001D0#0B4816902D205A40
(1695025778.244783) vcan0 000001A3#0000000804000000
(1695025778.244819) vcan0 0000014A#0000000000000000
(1695025778.260938) vcan0 000001D0#0B4816902D205A40
(1695025778.261055) vcan0 000001A3#0000000804000000
(1695025778.261089) vcan0 0000014A#0000000000000000
(1695025778.279098) vcan0 000001D0#0B4816902D205A40
(1695025778.279450) vcan0 000001A3#0000000804000000
(1695025778.279506) vcan0 0000014A#0000000000000000
(1695025778.295692) vcan0 000001D0#0B4816902D205A40
(1695025778.296196) vcan0 000001A3#0000000804000000
(1695025778.296248) vcan0 0000014A#0000000000000000
(1695025778.310924) vcan0 000001D0#0B4816902D205A40
(1695025778.311098) vcan0 000001A3#0000000804000000
(1695025778.311137) vcan0 0000014A#0000000000000000
(1695025778.326817) vcan0 000001D0#0B4816902D205A40
(1695025778.326981) vcan0 000001A3#0000000804000000
(1695025778.327021) vcan0 0000014A#0000000000000000
(1695025778.342976) vcan0 000001D0#0B4816902D205A40
(1695025778.343180) vcan0 000001A3#0000000804000000
(1695025778.343211) vcan0 0000014A#0000000000000000
(1695025778.358725) vcan0 000001D0#0B4816902D205A40
(1695025778.358856) vcan0 000001A3#0000000804000000
(1695025778.358902) vcan0 0000014A#0000000000000000
(1695025778.374732) vcan0 000001D0#0B4816902D205A40
(1695025778.374949) vcan0 000001A3#0000000804000000
(1695025778.374989) vcan0 0000014A#0000000000000000
(1695025778.391670) vcan0 000001D0#0B4816902D205A40
(1695025778.391856) vcan0 000001A3#0000000804000000
(1695025778.391907) vcan0 0000014A#0000000000000000
(1695025778.407378) vcan0 000001D0#0E021C0438087010
(1695025778.407525) vcan0 000001A3#0000000804000000
(1695025778.407558) vcan0 0000014A#0000000000000000
(1695025778.424172) vcan0 000001D0#0E021C0438087010
(1695025778.424316) vcan0 000001A3#0000000804000000
(1695025778.424378) vcan0 0000014A#0000000000000000
(1695025778.439767) vcan0 000001D0#0E021C0438087010
(1695025778.439867) vcan0 000001A3#0000000804000000
(1695025778.439897) vcan0 0000014A#0000000000000000
(1695025778.455969) vcan0 000001D0#0E021C0438087010
(1695025778.456093) vcan0 000001A3#0000000804000000
(1695025778.456128) vcan0 0000014A#0000000000000000
(1695025778.471715) vcan0 000001D0#0E021C0438087010
(1695025778.471819) vcan0 000001A3#0000000804000000
(1695025778.471883) vcan0 0000014A#0000000000000000
(1695025778.488553) vcan0 000001D0#0E021C0438087010
(1695025778.488725) vcan0 000001A3#0000000804000000
(1695025778.488757) vcan0 0000014A#0000000000000000
(1695025778.507545) vcan0 000001D0#0E021C0438087010
(1695025778.507686) vcan0 000001A3#0000000804000000
(1695025778.507723) vcan0 0000014A#0000000000000000
(1695025778.522738) vcan0 000001D0#0E021C0438087010
(1695025778.522900) vcan0 000001A3#0000000804000000
(1695025778.522950) vcan0 0000014A#0000000000000000
(1695025778.539647) vcan0 000001D0#0E021C0438087010
(1695025778.539862) vcan0 000001A3#0000000804000000
(1695025778.539901) vcan0 0000014A#0000000000000000
(1695025778.555804) vcan0 000001D0#0E021C0438087010
(1695025778.555956) vcan0 000001A3#0000000804000000
(1695025778.555990) vcan0 0000014A#0000000000000000
(1695025778.571895) vcan0 000001D0#0E021C0438087010
(1695025778.572145) vcan0 000001A3#0000000804000000
(1695025778.572192) vcan0 0000014A#0000000000000000
(1695025778.587674) vcan0 000001D0#0E021C0438087010
(1695025778.587839) vcan0 000001A3#0000000804000000
(1695025778.587876) vcan0 0000014A#0000000000000000
(1695025778.604289) vcan0 000001D0#0E021C0438087010
(1695025778.604453) vcan0 000001A3#0000000804000000
(1695025778.604514) vcan0 0000014A#0000000000000000
(1695025778.624457) vcan0 000001D0#0E1A1C34386870D0
(1695025778.624620) vcan0 000001A3#0000000804000000
(1695025778.624721) vcan0 0000014A#0000000000000000
(1695025778.647689) vcan0 000001D0#0E1A1C34386870D0
(1695025778.647876) vcan0 000001A3#0000000804000000
(1695025778.647917) vcan0 0000014A#0000000000000000
(1695025778.661422) vcan0 000001D0#0E1A1C34386870D0
(1695025778.661524) vcan0 000001A3#0000000804000000
(1695025778.661557) vcan0 0000014A#0000000000000000
(1695025778.679577) vcan0 000001D0#0E1A1C34386870D0
(1695025778.679791) vcan0 000001A3#0000000804000000
(1695025778.679837) vcan0 0000014A#0000000000000000
(1695025778.695463) vcan0 000001D0#0E1A1C34386870D0
(1695025778.695630) vcan0 000001A3#0000000804000000
(1695025778.695664) vcan0 0000014A#0000000000000000
(1695025778.712311) vcan0 000001D0#0E1A1C34386870D0
(1695025778.712524) vcan0 000001A3#0000000804000000
(1695025778.712605) vcan0 0000014A#0000000000000000
(1695025778.727784) vcan0 000001D0#0E1A1C34386870D0
(1695025778.728061) vcan0 000001A3#0000000804000000
(1695025778.728151) vcan0 0000014A#0000000000000000
(1695025778.743582) vcan0 000001D0#0E1A1C34386870D0
(1695025778.743775) vcan0 000001A3#0000000804000000
(1695025778.743813) vcan0 0000014A#0000000000000000
(1695025778.759488) vcan0 000001D0#0E1A1C34386870D0
(1695025778.759595) vcan0 000001A3#0000000804000000
(1695025778.759628) vcan0 0000014A#0000000000000000
(1695025778.775544) vcan0 000001D0#0E1A1C34386870D0
(1695025778.775657) vcan0 000001A3#0000000804000000
(1695025778.775694) vcan0 0000014A#0000000000000000
(1695025778.791637) vcan0 000001D0#0E1A1C34386870D0
(1695025778.791770) vcan0 000001A3#0000000804000000
(1695025778.791804) vcan0 0000014A#0000000000000000
(1695025778.808084) vcan0 000001D0#0E1A1C34386870D0
(1695025778.808338) vcan0 000001A3#0000000804000000
(1695025778.808400) vcan0 0000014A#0000000000000000
(1695025778.823633) vcan0 000001D0#0E1A1C34386870D0
(1695025778.823956) vcan0 000001A3#0000000804000000
(1695025778.824037) vcan0 0000014A#0000000000000000
(1695025778.844373) vcan0 000001D0#1122224444888910
(1695025778.844528) vcan0 000001A3#0000000403000000
(1695025778.844589) vcan0 0000014A#0000000000000000
(1695025778.864207) vcan0 000001D0#1122224444888910
(1695025778.864439) vcan0 000001A3#0000000403000000
(1695025778.864478) vcan0 0000014A#0000000000000000
(1695025778.879822) vcan0 000001D0#1122224444888910
(1695025778.879939) vcan0 000001A3#0000000403000000
(1695025778.879973) vcan0 0000014A#0000000000000000
(1695025778.893765) vcan0 000001D0#1122224444888910
(1695025778.894334) vcan0 000001A3#0000000403000000
(1695025778.894734) vcan0 0000014A#0000000000000000
(1695025778.910499) vcan0 000001D0#1122224444888910
(1695025778.910604) vcan0 000001A3#0000000403000000
(1695025778.910677) vcan0 0000014A#0000000000000000
(1695025778.927157) vcan0 000001D0#1122224444888910
(1695025778.927804) vcan0 000001A3#0000000403000000
(1695025778.927928) vcan0 0000014A#0000000000000000
(1695025778.944791) vcan0 000001D0#1122224444888910
(1695025778.945017) vcan0 000001A3#0000000403000000
(1695025778.945095) vcan0 0000014A#0000000000000000
(1695025778.959783) vcan0 000001D0#1122224444888910
(1695025778.959885) vcan0 000001A3#0000000403000000
(1695025778.959915) vcan0 0000014A#0000000000000000
(1695025778.975533) vcan0 000001D0#1122224444888910
(1695025778.975669) vcan0 000001A3#0000000403000000
(1695025778.975701) vcan0 0000014A#0000000000000000
(1695025778.991428) vcan0 000001D0#1122224444888910
(1695025778.991575) vcan0 000001A3#0000000403000000
(1695025778.991609) vcan0 0000014A#0000000000000000
(1695025779.007505) vcan0 000001D0#1122224444888910
(1695025779.007653) vcan0 000001A3#0000000403000000
(1695025779.007687) vcan0 0000014A#0000000000000000
(1695025779.023936) vcan0 000001D0#1122224444888910
(1695025779.024189) vcan0 000001A3#0000000403000000
(1695025779.024263) vcan0 0000014A#0000000000000000
(1695025779.044418) vcan0 000001D0#1122224444888910
(1695025779.044832) vcan0 000001A3#0000000403000000
(1695025779.045003) vcan0 0000014A#0000000000000000
(1695025779.055745) vcan0 000001D0#126A24D449A89350
(1695025779.055860) vcan0 000001A3#0000000804000000
(1695025779.055891) vcan0 0000014A#0000000000000000
(1695025779.073820) vcan0 000001D0#126A24D449A89350
(1695025779.073982) vcan0 000001A3#0000000804000000
(1695025779.074019) vcan0 0000014A#0000000000000000
(1695025779.090016) vcan0 000001D0#126A24D449A89350
(1695025779.090576) vcan0 000001A3#0000000804000000
(1695025779.090631) vcan0 0000014A#0000000000000000
(1695025779.105637) vcan0 000001D0#126A24D449A89350
(1695025779.105824) vcan0 000001A3#0000000804000000
(1695025779.106012) vcan0 0000014A#0000000000000000
(1695025779.122834) vcan0 000001D0#126A24D449A89350
(1695025779.123453) vcan0 000001A3#0000000804000000
(1695025779.123669) vcan0 0000014A#0000000000000000
(1695025779.139153) vcan0 000001D0#126A24D449A89350
(1695025779.139442) vcan0 000001A3#0000000804000000
(1695025779.139487) vcan0 0000014A#0000000000000000
(1695025779.154287) vcan0 000001D0#126A24D449A89350
(1695025779.154476) vcan0 000001A3#0000000804000000
(1695025779.154559) vcan0 0000014A#0000000000000000
(1695025779.170685) vcan0 000001D0#126A24D449A89350
(1695025779.170886) vcan0 000001A3#0000000804000000
(1695025779.170922) vcan0 0000014A#0000000000000000
(1695025779.185931) vcan0 000001D0#126A24D449A89350
(1695025779.186098) vcan0 000001A3#0000000804000000
(1695025779.186131) vcan0 0000014A#0000000000000000
(1695025779.201800) vcan0 000001D0#126A24D449A89350
(1695025779.202036) vcan0 000001A3#0000000804000000
(1695025779.202082) vcan0 0000014A#0000000000000000
(1695025779.217656) vcan0 000001D0#126A24D449A89350
(1695025779.217768) vcan0 000001A3#0000000804000000
(1695025779.217800) vcan0 0000014A#0000000000000000
(1695025779.233920) vcan0 000001D0#126A24D449A89350
(1695025779.234141) vcan0 000001A3#0000000804000000
(1695025779.234179) vcan0 0000014A#0000000000000000
(1695025779.249557) vcan0 000001D0#126A24D449A89350
(1695025779.249677) vcan0 000001A3#0000000804000000
(1695025779.249709) vcan0 0000014A#0000000000000000
(1695025779.268334) vcan0 000001D0#149C29385270A4E0
(1695025779.268457) vcan0 000001A3#0000000804000000
(1695025779.268497) vcan0 0000014A#0000000000000000
(1695025779.282568) vcan0 000001D0#149C29385270A4E0
(1695025779.282752) vcan0 000001A3#0000000804000000
(1695025779.282789) vcan0 0000014A#0000000000000000
(1695025779.298533) vcan0 000001D0#149C29385270A4E0
(1695025779.298653) vcan0 000001A3#0000000804000000
(1695025779.298688) vcan0 0000014A#0000000000000000
(1695025779.314549) vcan0 000001D0#149C29385270A4E0
(1695025779.314754) vcan0 000001A3#0000000804000000
(1695025779.314798) vcan0 0000014A#0000000000000000
(1695025779.333483) vcan0 000001D0#149C29385270A4E0
(1695025779.333717) vcan0 000001A3#0000000804000000
(1695025779.333770) vcan0 0000014A#0000000000000000
(1695025779.348489) vcan0 000001D0#149C29385270A4E0
(1695025779.348636) vcan0 000001A3#0000000804000000
(1695025779.348677) vcan0 0000014A#0000000000000000
(1695025779.365055) vcan0 000001D0#149C29385270A4E0
(1695025779.365222) vcan0 000001A3#0000000804000000
(1695025779.365257) vcan0 0000014A#0000000000000000
(1695025779.382252) vcan0 000001D0#149C29385270A4E0
(1695025779.382456) vcan0 000001A3#0000000804000000
(1695025779.382573) vcan0 0000014A#0000000000000000
(1695025779.397349) vcan0 000001D0#149C29385270A4E0
(1695025779.397571) vcan0 000001A3#0000000804000000
(1695025779.397635) vcan0 0000014A#0000000000000000
(1695025779.412972) vcan0 000001D0#149C29385270A4E0
(1695025779.413172) vcan0 000001A3#0000000804000000
(1695025779.413239) vcan0 0000014A#0000000000000000
(1695025779.428577) vcan0 000001D0#149C29385270A4E0
(1695025779.428764) vcan0 000001A3#0000000804000000
(1695025779.428816) vcan0 0000014A#0000000000000000
(1695025779.444837) vcan0 000001D0#149C29385270A4E0
(1695025779.445006) vcan0 000001A3#0000000804000000
(1695025779.445037) vcan0 0000014A#0000000000000000
(1695025779.460847) vcan0 000001D0#149C29385270A4E0
(1695025779.460984) vcan0 000001A3#0000000804000000
(1695025779.461019) vcan0 0000014A#0000000000000000
(1695025779.476609) vcan0 000001D0#149C29385270A4E0
(1695025779.476788) vcan0 000001A3#0000000804000000
(1695025779.476841) vcan0 0000014A#0000000000000000
(1695025779.492567) vcan0 000001D0#15802B005600AC00
(1695025779.492820) vcan0 000001A3#0000000804000000
(1695025779.492886) vcan0 0000014A#0000000000000000
(1695025779.508597) vcan0 000001D0#15802B005600AC00
(1695025779.508726) vcan0 000001A3#0000000804000000
(1695025779.508767) vcan0 0000014A#0000000000000000
(1695025779.524666) vcan0 000001D0#15802B005600AC00
(1695025779.524854) vcan0 000001A3#0000000804000000
(1695025779.524892) vcan0 0000014A#0000000000000000
(1695025779.541521) vcan0 000001D0#15802B005600AC00
(1695025779.541645) vcan0 000001A3#0000000804000000
(1695025779.541678) vcan0 0000014A#0000000000000000
(1695025779.564903) vcan0 000001D0#15802B005600AC00
(1695025779.565186) vcan0 000001A3#0000000804000000
(1695025779.565231) vcan0 0000014A#0000000000000000
(1695025779.575830) vcan0 000001D0#15802B005600AC00
(1695025779.575940) vcan0 000001A3#0000000804000000
(1695025779.575971) vcan0 0000014A#0000000000000000
(1695025779.591610) vcan0 000001D0#15802B005600AC00
(1695025779.591725) vcan0 000001A3#0000000804000000
(1695025779.591757) vcan0 0000014A#0000000000000000
(1695025779.607967) vcan0 000001D0#15802B005600AC00
(1695025779.608104) vcan0 000001A3#0000000804000000
(1695025779.608138) vcan0 0000014A#0000000000000000
(1695025779.624017) vcan0 000001D0#15802B005600AC00
(1695025779.624328) vcan0 000001A3#0000000804000000
(1695025779.624380) vcan0 0000014A#0000000000000000
(1695025779.639622) vcan0 000001D0#15802B005600AC00
(1695025779.639815) vcan0 000001A3#0000000804000000
(1695025779.639867) vcan0 0000014A#0000000000000000
(1695025779.655895) vcan0 000001D0#15802B005600AC00
(1695025779.656732) vcan0 000001A3#0000000804000000
(1695025779.656777) vcan0 0000014A#0000000000000000
(1695025779.679240) vcan0 000001D0#15802B005600AC00
(1695025779.679366) vcan0 000001A3#0000000804000000
(1695025779.679396) vcan0 0000014A#0000000000000000
(1695025779.689838) vcan0 000001D0#15802B005600AC00
(1695025779.690110) vcan0 000001A3#0000000804000000
(1695025779.690190) vcan0 0000014A#0000000000000000
(1695025779.705983) vcan0 000001D0#15802B005600AC00
(1695025779.707051) vcan0 000001A3#0000000804000000
(1695025779.707808) vcan0 0000014A#0000000000000000
(1695025779.722567) vcan0 000001D0#17DA2FB45F68BED0
(1695025779.722963) vcan0 000001A3#0000000403000000
(1695025779.723037) vcan0 0000014A#0000000000000000
(1695025779.738372) vcan0 000001D0#17DA2FB45F68BED0
(1695025779.738545) vcan0 000001A3#0000000403000000
(1695025779.738581) vcan0 0000014A#0000000000000000
(1695025779.753818) vcan0 000001D0#17DA2FB45F68BED0
(1695025779.753939) vcan0 000001A3#0000000403000000
(1695025779.753996) vcan0 0000014A#0000000000000000
(1695025779.772242) vcan0 000001D0#17DA2FB45F68BED0
(1695025779.772555) vcan0 000001A3#0000000403000000
(1695025779.772652) vcan0 0000014A#0000000000000000
(1695025779.788295) vcan0 000001D0#17DA2FB45F68BED0
(1695025779.788609) vcan0 000001A3#0000000403000000
(1695025779.788661) vcan0 0000014A#0000000000000000
(1695025779.804771) vcan0 000001D0#17DA2FB45F68BED0
(1695025779.805161) vcan0 000001A3#0000000403000000
(1695025779.805221) vcan0 0000014A#0000000000000000
(1695025779.820832) vcan0 000001D0#17DA2FB45F68BED0
(1695025779.821107) vcan0 000001A3#0000000403000000
(1695025779.821176) vcan0 0000014A#0000000000000000
(1695025779.836067) vcan0 000001D0#17DA2FB45F68BED0
(1695025779.836242) vcan0 000001A3#0000000403000000
(1695025779.836286) vcan0 0000014A#0000000000000000
(1695025779.851598) vcan0 000001D0#17DA2FB45F68BED0
(1695025779.851712) vcan0 000001A3#0000000403000000
(1695025779.851745) vcan0 0000014A#0000000000000000
(1695025779.867844) vcan0 000001D0#17DA2FB45F68BED0
(1695025779.867995) vcan0 000001A3#0000000403000000
(1695025779.868027) vcan0 0000014A#0000000000000000
(1695025779.882711) vcan0 000001D0#17DA2FB45F68BED0
(1695025779.882859) vcan0 000001A3#0000000403000000
(1695025779.882910) vcan0 0000014A#0000000000000000
(1695025779.899074) vcan0 000001D0#17DA2FB45F68BED0
(1695025779.899246) vcan0 000001A3#0000000403000000
(1695025779.899282) vcan0 0000014A#0000000000000000
(1695025779.914876) vcan0 000001D0#17DA2FB45F68BED0
(1695025779.915223) vcan0 000001A3#0000000403000000
(1695025779.915314) vcan0 0000014A#0000000000000000
(1695025779.930581) vcan0 000001D0#1ABA35746AE8D5D0
(1695025779.930725) vcan0 000001A3#0000000804000000
(1695025779.930793) vcan0 0000014A#0000000000000000
(1695025779.946767) vcan0 000001D0#1ABA35746AE8D5D0
(1695025779.947006) vcan0 000001A3#0000000804000000
(1695025779.947102) vcan0 0000014A#0000000000000000
(1695025779.962678) vcan0 000001D0#1ABA35746AE8D5D0
(1695025779.962910) vcan0 000001A3#0000000804000000
(1695025779.962981) vcan0 0000014A#0000000000000000
(1695025779.988462) vcan0 000001D0#1ABA35746AE8D5D0
(1695025779.988843) vcan0 000001A3#0000000804000000
(1695025779.990010) vcan0 0000014A#0000000000000000
(1695025780.004808) vcan0 000001D0#1ABA35746AE8D5D0
(1695025780.004967) vcan0 000001A3#0000000804000000
(1695025780.005082) vcan0 0000014A#0000000000000000
(1695025780.020490) vcan0 000001D0#1ABA35746AE8D5D0
(1695025780.020658) vcan0 000001A3#0000000804000000
(1695025780.021581) vcan0 0000014A#0000000000000000
(1695025780.035927) vcan0 000001D0#1ABA35746AE8D5D0
(1695025780.036332) vcan0 000001A3#0000000804000000
(1695025780.036419) vcan0 0000014A#0000000000000000
(1695025780.051667) vcan0 000001D0#1ABA35746AE8D5D0
(1695025780.051762) vcan0 000001A3#0000000804000000
(1695025780.051792) vcan0 0000014A#0000000000000000
(1695025780.067742) vcan0 000001D0#1ABA35746AE8D5D0
(1695025780.067895) vcan0 000001A3#0000000804000000
(1695025780.067947) vcan0 0000014A#0000000000000000
(1695025780.083608) vcan0 000001D0#1ABA35746AE8D5D0
(1695025780.083786) vcan0 000001A3#0000000804000000
(1695025780.083816) vcan0 0000014A#0000000000000000
(1695025780.099638) vcan0 000001D0#1ABA35746AE8D5D0
(1695025780.099790) vcan0 000001A3#0000000804000000
(1695025780.099840) vcan0 0000014A#0000000000000000
(1695025780.115547) vcan0 000001D0#1ABA35746AE8D5D0
(1695025780.115687) vcan0 000001A3#0000000804000000
(1695025780.115718) vcan0 0000014A#0000000000000000
(1695025780.132817) vcan0 000001D0#1ABA35746AE8D5D0
(1695025780.133118) vcan0 000001A3#0000000804000000
(1695025780.133348) vcan0 0000014A#0000000000000000
(1695025780.149458) vcan0 000001D0#1C8C39187230E460
(1695025780.149574) vcan0 000001A3#0000000804000000
(1695025780.149611) vcan0 0000014A#0000000000000000
(1695025780.164810) vcan0 000001D0#1C8C39187230E460
(1695025780.164987) vcan0 000001A3#0000000804000000
(1695025780.165034) vcan0 0000014A#0000000000000000
(1695025780.180585) vcan0 000001D0#1C8C39187230E460
(1695025780.180726) vcan0 000001A3#0000000804000000
(1695025780.180800) vcan0 0000014A#0000000000000000
(1695025780.198376) vcan0 000001D0#1C8C39187230E460
(1695025780.198544) vcan0 000001A3#0000000804000000
(1695025780.198620) vcan0 0000014A#0000000000000000
(1695025780.212722) vcan0 000001D0#1C8C39187230E460
(1695025780.212883) vcan0 000001A3#0000000804000000
(1695025780.212923) vcan0 0000014A#0000000000000000
(1695025780.231987) vcan0 000001D0#1C8C39187230E460
(1695025780.232249) vcan0 000001A3#0000000804000000
(1695025780.232803) vcan0 0000014A#0000000000000000
(1695025780.244860) vcan0 000001D0#1C8C39187230E460
(1695025780.244961) vcan0 000001A3#0000000804000000
(1695025780.244992) vcan0 0000014A#0000000000000000
(1695025780.265071) vcan0 000001D0#1C8C39187230E460
(1695025780.265407) vcan0 000001A3#0000000804000000
(1695025780.265453) vcan0 0000014A#0000000000000000
(1695025780.281055) vcan0 000001D0#1C8C39187230E460
(1695025780.281229) vcan0 000001A3#0000000804000000
(1695025780.281267) vcan0 0000014A#0000000000000000
(1695025780.296801) vcan0 000001D0#1C8C39187230E460
(1695025780.297243) vcan0 000001A3#0000000804000000
(1695025780.297300) vcan0 0000014A#0000000000000000
(1695025780.312682) vcan0 000001D0#1C8C39187230E460
(1695025780.312886) vcan0 000001A3#0000000804000000
(1695025780.312948) vcan0 0000014A#0000000000000000
(1695025780.328619) vcan0 000001D0#1C8C39187230E460
(1695025780.328785) vcan0 000001A3#0000000804000000
(1695025780.328826) vcan0 0000014A#0000000000000000
(1695025780.344924) vcan0 000001D0#1C8C39187230E460
(1695025780.345187) vcan0 000001A3#0000000804000000
(1695025780.345277) vcan0 0000014A#0000000000000000
(1695025780.360976) vcan0 000001D0#1D6C3AD875B0EB60
(1695025780.361363) vcan0 000001A3#0000000804000000
(1695025780.361427) vcan0 0000014A#0000000000000000
(1695025780.377057) vcan0 000001D0#1D6C3AD875B0EB60
(1695025780.377265) vcan0 000001A3#0000000804000000
(1695025780.377333) vcan0 0000014A#0000000000000000
(1695025780.396077) vcan0 000001D0#1D6C3AD875B0EB60
(1695025780.396233) vcan0 000001A3#0000000804000000
(1695025780.396265) vcan0 0000014A#0000000000000000
(1695025780.409899) vcan0 000001D0#1D6C3AD875B0EB60
(1695025780.410001) vcan0 000001A3#0000000804000000
(1695025780.410031) vcan0 0000014A#0000000000000000
(1695025780.425606) vcan0 000001D0#1D6C3AD875B0EB60
(1695025780.425765) vcan0 000001A3#0000000804000000
(1695025780.425800) vcan0 0000014A#0000000000000000
(1695025780.443292) vcan0 000001D0#1D6C3AD875B0EB60
(1695025780.443430) vcan0 000001A3#0000000804000000
(1695025780.443466) vcan0 0000014A#0000000000000000
(1695025780.461196) vcan0 000001D0#1D6C3AD875B0EB60
(1695025780.461364) vcan0 000001A3#0000000804000000
(1695025780.461399) vcan0 0000014A#0000000000000000
(1695025780.479432) vcan0 000001D0#1D6C3AD875B0EB60
(1695025780.479625) vcan0 000001A3#0000000804000000
(1695025780.479658) vcan0 0000014A#0000000000000000
(1695025780.495603) vcan0 000001D0#1D6C3AD875B0EB60
(1695025780.495765) vcan0 000001A3#0000000804000000
(1695025780.495804) vcan0 0000014A#0000000000000000
(1695025780.511294) vcan0 000001D0#1D6C3AD875B0EB60
(1695025780.511456) vcan0 000001A3#0000000804000000
(1695025780.511496) vcan0 0000014A#0000000000000000
(1695025780.528554) vcan0 000001D0#1D6C3AD875B0EB60
(1695025780.528776) vcan0 000001A3#0000000804000000
(1695025780.528810) vcan0 0000014A#0000000000000000
(1695025780.543859) vcan0 000001D0#1D6C3AD875B0EB60
(1695025780.544044) vcan0 000001A3#0000000804000000
(1695025780.544089) vcan0 0000014A#0000000000000000
(1695025780.559864) vcan0 000001D0#1D6C3AD875B0EB60
(1695025780.560157) vcan0 000001A3#0000000804000000
(1695025780.560216) vcan0 0000014A#0000000000000000
(1695025780.575860) vcan0 000001D0#1E4A3C947928F250
(1695025780.575988) vcan0 000001A3#0000000403000000
(1695025780.576051) vcan0 0000014A#0000000000000000
(1695025780.591605) vcan0 000001D0#1E4A3C947928F250
(1695025780.591781) vcan0 000001A3#0000000403000000
(1695025780.591826) vcan0 0000014A#0000000000000000
(1695025780.608640) vcan0 000001D0#1E4A3C947928F250
(1695025780.608796) vcan0 000001A3#0000000403000000
(1695025780.608836) vcan0 0000014A#0000000000000000
(1695025780.628551) vcan0 000001D0#1E4A3C947928F250
(1695025780.628891) vcan0 000001A3#0000000403000000
(1695025780.629059) vcan0 0000014A#0000000000000000
(1695025780.644552) vcan0 000001D0#1E4A3C947928F250
(1695025780.644730) vcan0 000001A3#0000000403000000
(1695025780.644783) vcan0 0000014A#0000000000000000
(1695025780.659481) vcan0 000001D0#1E4A3C947928F250
(1695025780.659709) vcan0 000001A3#0000000403000000
(1695025780.659807) vcan0 0000014A#0000000000000000
(1695025780.675493) vcan0 000001D0#1E4A3C947928F250
(1695025780.675613) vcan0 000001A3#0000000403000000
(1695025780.675649) vcan0 0000014A#0000000000000000
(1695025780.691481) vcan0 000001D0#1E4A3C947928F250
(1695025780.691597) vcan0 000001A3#0000000403000000
(1695025780.691633) vcan0 0000014A#0000000000000000
(1695025780.707473) vcan0 000001D0#1E4A3C947928F250
(1695025780.707598) vcan0 000001A3#0000000403000000
(1695025780.707630) vcan0 0000014A#0000000000000000
(1695025780.723765) vcan0 000001D0#1E4A3C947928F250
(1695025780.723928) vcan0 000001A3#0000000403000000
(1695025780.723965) vcan0 0000014A#0000000000000000
(1695025780.739832) vcan0 000001D0#1E4A3C947928F250
(1695025780.739943) vcan0 000001A3#0000000403000000
(1695025780.739974) vcan0 0000014A#0000000000000000
(1695025780.755684) vcan0 000001D0#1E4A3C947928F250
(1695025780.755902) vcan0 000001A3#0000000403000000
(1695025780.755947) vcan0 0000014A#0000000000000000
(1695025780.773740) vcan0 000001D0#1E4A3C947928F250
(1695025780.773878) vcan0 000001A3#0000000403000000
(1695025780.773910) vcan0 0000014A#0000000000000000
(1695025780.787649) vcan0 000001D0#1E4A3C947928F250
(1695025780.787801) vcan0 000001A3#0000000403000000
(1695025780.787834) vcan0 0000014A#0000000000000000
(1695025780.808328) vcan0 000001D0#1EFA3DF47BE8F7D0
(1695025780.808474) vcan0 000001A3#0000000804000000
(1695025780.808513) vcan0 0000014A#0000000000000000
(1695025780.824126) vcan0 000001D0#1EFA3DF47BE8F7D0
(1695025780.824237) vcan0 000001A3#0000000804000000
(1695025780.824271) vcan0 0000014A#0000000000000000
(1695025780.841705) vcan0 000001D0#1EFA3DF47BE8F7D0
(1695025780.841817) vcan0 000001A3#0000000804000000
(1695025780.841853) vcan0 0000014A#0000000000000000
(1695025780.862389) vcan0 000001D0#1EFA3DF47BE8F7D0
(1695025780.862540) vcan0 000001A3#0000000804000000
(1695025780.862622) vcan0 0000014A#0000000000000000
(1695025780.877536) vcan0 000001D0#1EFA3DF47BE8F7D0
(1695025780.877769) vcan0 000001A3#0000000804000000
(1695025780.877842) vcan0 0000014A#0000000000000000
(1695025780.892960) vcan0 000001D0#1EFA3DF47BE8F7D0
(1695025780.893246) vcan0 000001A3#0000000804000000
(1695025780.893295) vcan0 0000014A#0000000000000000
(1695025780.908808) vcan0 000001D0#1EFA3DF47BE8F7D0
(1695025780.909100) vcan0 000001A3#0000000804000000
(1695025780.909149) vcan0 0000014A#0000000000000000
(1695025780.926347) vcan0 000001D0#1EFA3DF47BE8F7D0
(1695025780.926632) vcan0 000001A3#0000000804000000
(1695025780.926672) vcan0 0000014A#0000000000000000
(1695025780.941784) vcan0 000001D0#1EFA3DF47BE8F7D0
(1695025780.941993) vcan0 000001A3#0000000804000000
(1695025780.942209) vcan0 0000014A#0000000000000000
(1695025780.958303) vcan0 000001D0#1EFA3DF47BE8F7D0
(1695025780.958537) vcan0 000001A3#0000000804000000
(1695025780.958589) vcan0 0000014A#0000000000000000
(1695025780.974566) vcan0 000001D0#1EFA3DF47BE8F7D0
(1695025780.974943) vcan0 000001A3#0000000804000000
(1695025780.974987) vcan0 0000014A#0000000000000000
(1695025780.990759) vcan0 000001D0#1EFA3DF47BE8F7D0
(1695025780.991036) vcan0 000001A3#0000000804000000
(1695025780.991091) vcan0 0000014A#0000000000000000
(1695025781.005860) vcan0 000001D0#1F063E0C7C18F830
(1695025781.005981) vcan0 000001A3#0000000804000000
(1695025781.006018) vcan0 0000014A#0000000000000000
(1695025781.021936) vcan0 000001D0#1F063E0C7C18F830
(1695025781.022351) vcan0 000001A3#0000000804000000
(1695025781.022397) vcan0 0000014A#0000000000000000
(1695025781.040040) vcan0 000001D0#1F063E0C7C18F830
(1695025781.040169) vcan0 000001A3#0000000804000000
(1695025781.040202) vcan0 0000014A#0000000000000000
(1695025781.055703) vcan0 000001D0#1F063E0C7C18F830
(1695025781.055935) vcan0 000001A3#0000000804000000
(1695025781.055991) vcan0 0000014A#0000000000000000
(1695025781.075148) vcan0 000001D0#1F063E0C7C18F830
(1695025781.075339) vcan0 000001A3#0000000804000000
(1695025781.075379) vcan0 0000014A#0000000000000000
(1695025781.087639) vcan0 000001D0#1F063E0C7C18F830
(1695025781.088073) vcan0 000001A3#0000000804000000
(1695025781.088378) vcan0 0000014A#0000000000000000
(1695025781.103427) vcan0 000001D0#1F063E0C7C18F830
(1695025781.103727) vcan0 000001A3#0000000804000000
(1695025781.104494) vcan0 0000014A#0000000000000000
(1695025781.119243) vcan0 000001D0#1F063E0C7C18F830
(1695025781.119525) vcan0 000001A3#0000000804000000
(1695025781.119609) vcan0 0000014A#0000000000000000
(1695025781.134793) vcan0 000001D0#1F063E0C7C18F830
(1695025781.135125) vcan0 000001A3#0000000804000000
(1695025781.135173) vcan0 0000014A#0000000000000000
(1695025781.150704) vcan0 000001D0#1F063E0C7C18F830
(1695025781.150866) vcan0 000001A3#0000000804000000
(1695025781.150911) vcan0 0000014A#0000000000000000
(1695025781.166796) vcan0 000001D0#1F063E0C7C18F830
(1695025781.167103) vcan0 000001A3#0000000804000000
(1695025781.167475) vcan0 0000014A#0000000000000000
(1695025781.183683) vcan0 000001D0#1F063E0C7C18F830
(1695025781.183889) vcan0 000001A3#0000000804000000
(1695025781.183957) vcan0 0000014A#0000000000000000
(1695025781.198618) vcan0 000001D0#1F063E0C7C18F830
(1695025781.198791) vcan0 000001A3#0000000804000000
(1695025781.198855) vcan0 0000014A#0000000000000000
(1695025781.215017) vcan0 000001D0#1F063E0C7C18F830
(1695025781.215242) vcan0 000001A3#0000000804000000
(1695025781.215299) vcan0 0000014A#0000000000000000
(1695025781.233477) vcan0 000001D0#1EEE3DDC7BB8F770
(1695025781.233573) vcan0 000001A3#0000000804000000
(1695025781.233604) vcan0 0000014A#0000000000000000
(1695025781.249019) vcan0 000001D0#1EEE3DDC7BB8F770
(1695025781.249547) vcan0 000001A3#0000000804000000
(1695025781.250510) vcan0 0000014A#0000000000000000
(1695025781.265985) vcan0 000001D0#1EEE3DDC7BB8F770
(1695025781.266091) vcan0 000001A3#0000000804000000
(1695025781.266123) vcan0 0000014A#0000000000000000
(1695025781.286765) vcan0 000001D0#1EEE3DDC7BB8F770
(1695025781.287033) vcan0 000001A3#0000000804000000
(1695025781.287696) vcan0 0000014A#0000000000000000
(1695025781.298963) vcan0 000001D0#1EEE3DDC7BB8F770
(1695025781.299235) vcan0 000001A3#0000000804000000
(1695025781.299282) vcan0 0000014A#0000000000000000
(1695025781.314735) vcan0 000001D0#1EEE3DDC7BB8F770
(1695025781.315046) vcan0 000001A3#0000000804000000
(1695025781.315130) vcan0 0000014A#0000000000000000
(1695025781.331026) vcan0 000001D0#1EEE3DDC7BB8F770
(1695025781.331255) vcan0 000001A3#0000000804000000
(1695025781.331295) vcan0 0000014A#0000000000000000
(1695025781.346887) vcan0 000001D0#1EEE3DDC7BB8F770
(1695025781.347152) vcan0 000001A3#0000000804000000
(1695025781.347222) vcan0 0000014A#0000000000000000
(1695025781.362802) vcan0 000001D0#1EEE3DDC7BB8F770
(1695025781.363010) vcan0 000001A3#0000000804000000
(1695025781.363120) vcan0 0000014A#0000000000000000
(1695025781.378470) vcan0 000001D0#1EEE3DDC7BB8F770
(1695025781.378590) vcan0 000001A3#0000000804000000
(1695025781.378684) vcan0 0000014A#0000000000000000
(1695025781.394642) vcan0 000001D0#1EEE3DDC7BB8F770
(1695025781.394767) vcan0 000001A3#0000000804000000
(1695025781.394804) vcan0 0000014A#0000000000000000
(1695025781.410614) vcan0 000001D0#1EEE3DDC7BB8F770
(1695025781.410774) vcan0 000001A3#0000000804000000
(1695025781.410831) vcan0 0000014A#0000000000000000
(1695025781.426529) vcan0 000001D0#1EEE3DDC7BB8F770
(1695025781.426652) vcan0 000001A3#0000000804000000
(1695025781.426684) vcan0 0000014A#0000000000000000
(1695025781.444629) vcan0 000001D0#1EEE3DDC7BB8F770
(1695025781.445323) vcan0 000001A3#0000000804000000
(1695025781.445483) vcan0 0000014A#0000000000000000
(1695025781.463539) vcan0 000001D0#1EB43D687AD0F5A0
(1695025781.463715) vcan0 000001A3#0000000403000000
(1695025781.463761) vcan0 0000014A#0000000000000000
(1695025781.476486) vcan0 000001D0#1EB43D687AD0F5A0
(1695025781.476704) vcan0 000001A3#0000000403000000
(1695025781.476760) vcan0 0000014A#0000000000000000
(1695025781.492608) vcan0 000001D0#1EB43D687AD0F5A0
(1695025781.492914) vcan0 000001A3#0000000403000000
(1695025781.492976) vcan0 0000014A#0000000000000000
(1695025781.508711) vcan0 000001D0#1EB43D687AD0F5A0
(1695025781.508826) vcan0 000001A3#0000000403000000
(1695025781.508858) vcan0 0000014A#0000000000000000
(1695025781.525540) vcan0 000001D0#1EB43D687AD0F5A0
(1695025781.525674) vcan0 000001A3#0000000403000000
(1695025781.525707) vcan0 0000014A#0000000000000000
(1695025781.544749) vcan0 000001D0#1EB43D687AD0F5A0
(1695025781.544957) vcan0 000001A3#0000000403000000
(1695025781.544998) vcan0 0000014A#0000000000000000
(1695025781.564858) vcan0 000001D0#1EB43D687AD0F5A0
(1695025781.564976) vcan0 000001A3#0000000403000000
(1695025781.565009) vcan0 0000014A#0000000000000000
(1695025781.580502) vcan0 000001D0#1EB43D687AD0F5A0
(1695025781.580702) vcan0 000001A3#0000000403000000
(1695025781.580790) vcan0 0000014A#0000000000000000
(1695025781.596656) vcan0 000001D0#1EB43D687AD0F5A0
(1695025781.596829) vcan0 000001A3#0000000403000000
(1695025781.596861) vcan0 0000014A#0000000000000000
(1695025781.612595) vcan0 000001D0#1EB43D687AD0F5A0
(1695025781.612750) vcan0 000001A3#0000000403000000
(1695025781.612783) vcan0 0000014A#0000000000000000
(1695025781.628488) vcan0 000001D0#1EB43D687AD0F5A0
(1695025781.628680) vcan0 000001A3#0000000403000000
(1695025781.628736) vcan0 0000014A#0000000000000000
(1695025781.645434) vcan0 000001D0#1EB43D687AD0F5A0
(1695025781.645816) vcan0 000001A3#0000000403000000
(1695025781.645882) vcan0 0000014A#0000000000000000
(1695025781.660941) vcan0 000001D0#1EB43D687AD0F5A0
(1695025781.661383) vcan0 000001A3#0000000403000000
(1695025781.661425) vcan0 0000014A#0000000000000000
