 (1709187308.551201)  vcan0  0000014A   [8]  01 00 00 00 00 00 00 00
 (1709187308.552636)  vcan0  0000017C   [8]  00 00 00 00 00 00 00 00
 (1709187308.553503)  vcan0  000001A3   [8]  00 00 00 00 00 00 00 00
 (1709187308.623764)  vcan0  0000014A   [8]  01 2C 00 00 00 00 00 00
 (1709187308.625553)  vcan0  0000017C   [8]  C0 00 00 00 00 00 00 00
 (1709187308.630397)  vcan0  000001A3   [8]  00 00 00 00 00 00 00 00
 (1709187308.662774)  vcan0  0000014A   [8]  01 2C 00 00 00 00 00 00
 (1709187308.663966)  vcan0  0000017C   [8]  C0 00 00 00 00 00 00 00
 (1709187308.665117)  vcan0  000001A3   [8]  00 00 00 00 00 00 00 00
 (1709187308.696619)  vcan0  0000014A   [8]  01 2C 00 00 00 00 00 00
 (1709187308.698205)  vcan0  0000017C   [8]  C0 00 00 00 00 00 00 00
 (1709187308.698907)  vcan0  000001A3   [8]  00 00 00 00 00 00 00 00
 (1709187308.746068)  vcan0  0000014A   [8]  01 2C 00 00 00 00 00 00
 (1709187308.746852)  vcan0  0000017C   [8]  C0 00 00 00 00 00 00 00
 (1709187308.747474)  vcan0  000001A3   [8]  00 00 00 00 00 00 00 00
 (1709187308.773927)  vcan0  0000014A   [8]  01 2C 00 00 00 00 00 00
 (1709187308.774829)  vcan0  0000017C   [8]  C0 00 00 00 00 00 00 00
 (1709187308.775637)  vcan0  000001A3   [8]  00 00 00 00 00 00 00 00
 (1709187308.803265)  vcan0  0000014A   [8]  01 2C 00 00 00 00 00 00
 (1709187308.816677)  vcan0  0000017C   [8]  C0 00 00 00 00 00 00 00
 (1709187308.818013)  vcan0  000001A3   [8]  00 00 00 00 00 00 00 00
 (1709187308.852068)  vcan0  0000014A   [8]  01 2C 00 00 00 00 00 00
 (1709187308.853604)  vcan0  0000017C   [8]  C0 00 00 00 00 00 00 00
 (1709187308.854382)  vcan0  000001A3   [8]  00 00 00 00 00 00 00 00
 (1709187308.871573)  vcan0  0000014A   [8]  01 2C 00 00 00 00 00 00
 (1709187308.879976)  vcan0  0000017C   [8]  C0 00 00 00 00 00 00 00
 (1709187308.881175)  vcan0  000001A3   [8]  00 00 00 00 00 00 00 00
 (1709187308.933900)  vcan0  0000014A   [8]  01 2C 00 00 00 00 00 00
 (1709187308.934660)  vcan0  0000017C   [8]  C0 00 00 00 00 00 00 00
 (1709187308.935495)  vcan0  000001A3   [8]  00 00 00 00 00 00 00 00
 (1709187308.961348)  vcan0  0000014A   [8]  01 2C 00 00 00 00 00 00
 (1709187308.962514)  vcan0  0000017C   [8]  C0 00 00 00 00 00 00 00
 (1709187308.963226)  vcan0  000001A3   [8]  00 00 00 00 00 00 00 00
 (1709187309.011332)  vcan0  0000014A   [8]  00 FE 00 00 00 00 00 00
 (1709187309.012184)  vcan0  0000017C   [8]  C0 00 00 00 00 00 00 00
 (1709187309.012840)  vcan0  000001A3   [8]  00 00 00 00 00 00 00 00
 (1709187309.048221)  vcan0  0000014A   [8]  00 FE 00 00 00 00 00 00
 (1709187309.048851)  vcan0  0000017C   [8]  C0 00 00 00 00 00 00 00
 (1709187309.049320)  vcan0  000001A3   [8]  00 00 00 00 00 00 00 00
 (1709187309.070159)  vcan0  0000014A   [8]  00 FE 00 00 00 00 00 00
 (1709187309.070995)  vcan0  0000017C   [8]  C0 00 00 00 00 00 00 00
 (1709187309.071507)  vcan0  000001A3   [8]  00 00 00 00 00 00 00 00
 (1709187309.101418)  vcan0  0000014A   [8]  01 1D 00 00 00 00 00 00
 (1709187309.102312)  vcan0  0000017C   [8]  C0 00 00 00 00 00 00 00
 (1709187309.102966)  vcan0  000001A3   [8]  00 00 00 00 00 00 00 00
 (1709187309.123705)  vcan0  0000014A   [8]  01 1D 00 00 00 00 00 00
 (1709187309.125221)  vcan0  0000017C   [8]  C0 00 00 00 00 00 00 00
 (1709187309.126206)  vcan0  000001A3   [8]  00 00 00 00 00 00 00 00
 (1709187309.183982)  vcan0  0000014A   [8]  01 1D 00 00 00 00 00 00
 (1709187309.192506)  vcan0  0000017C   [8]  C0 00 00 00 00 00 00 00
 (1709187309.193381)  vcan0  000001A3   [8]  00 00 00 00 00 00 00 00
 (1709187309.227069)  vcan0  0000014A   [8]  01 1D 00 00 00 00 00 00
 (1709187309.227659)  vcan0  0000017C   [8]  C0 00 00 00 00 00 00 00
 (1709187309.228133)  vcan0  000001A3   [8]  00 00 00 00 00 00 00 00
 (1709187309.261435)  vcan0  0000014A   [8]  01 1D 00 00 00 00 00 00
 (1709187309.262456)  vcan0  0000017C   [8]  C0 00 00 00 00 00 00 00
 (1709187309.263120)  vcan0  000001A3   [8]  00 00 00 00 00 00 00 00
 (1709187309.288734)  vcan0  0000014A   [8]  01 1D 00 00 00 00 00 00
 (1709187309.291181)  vcan0  0000017C   [8]  C0 00 00 00 00 00 00 00
 (1709187309.292183)  vcan0  000001A3   [8]  00 00 00 00 00 00 00 00
 (1709187309.334620)  vcan0  0000014A   [8]  01 1D 00 00 00 00 00 00
 (1709187309.335745)  vcan0  0000017C   [8]  C0 00 00 00 00 00 00 00
 (1709187309.336718)  vcan0  000001A3   [8]  00 00 00 00 00 00 00 00
 (1709187309.367285)  vcan0  0000014A   [8]  01 1D 00 00 00 00 00 00
 (1709187309.379219)  vcan0  0000017C   [8]  C0 00 00 00 00 00 00 00
 (1709187309.381163)  vcan0  000001A3   [8]  00 00 00 00 00 00 00 00
 (1709187309.451514)  vcan0  0000014A   [8]  01 1D 00 00 00 00 00 00
 (1709187309.452359)  vcan0  0000017C   [8]  C0 00 00 00 00 00 00 00
 (1709187309.453420)  vcan0  000001A3   [8]  00 00 00 00 00 00 00 00
 (1709187309.497979)  vcan0  0000014A   [8]  01 1D 00 00 00 00 00 00
 (1709187309.498625)  vcan0  0000017C   [8]  C0 00 00 00 00 00 00 00
 (1709187309.499286)  vcan0  000001A3   [8]  00 00 00 00 00 00 00 00
 (1709187309.524938)  vcan0  0000014A   [8]  01 1D 00 00 00 00 00 00
 (1709187309.525618)  vcan0  0000017C   [8]  C0 00 00 00 00 00 00 00
 (1709187309.526107)  vcan0  000001A3   [8]  00 00 00 00 00 00 00 00
 (1709187309.546425)  vcan0  0000014A   [8]  01 1D 00 00 00 00 00 00
 (1709187309.547193)  vcan0  0000017C   [8]  C0 00 00 00 00 00 00 00
 (1709187309.547815)  vcan0  000001A3   [8]  00 00 00 00 00 00 00 00
 (1709187309.572330)  vcan0  0000014A   [8]  01 1D 00 00 00 00 00 00
 (1709187309.576136)  vcan0  0000017C   [8]  C0 00 00 00 00 00 00 00
 (1709187309.576747)  vcan0  000001A3   [8]  00 00 00 00 00 00 00 00
 (1709187309.599452)  vcan0  0000014A   [8]  01 1D 00 00 00 00 00 00
 (1709187309.600357)  vcan0  0000017C   [8]  C0 00 00 00 00 00 00 00
 (1709187309.600894)  vcan0  000001A3   [8]  00 00 00 00 00 00 00 00
 (1709187309.625241)  vcan0  0000014A   [8]  01 1D 00 00 00 00 00 00
 (1709187309.626663)  vcan0  0000017C   [8]  C0 00 00 00 00 00 00 00
 (1709187309.628717)  vcan0  000001A3   [8]  00 00 00 00 00 00 00 00
 (1709187309.646895)  vcan0  0000014A   [8]  01 1D 00 00 00 00 00 00
 (1709187309.647623)  vcan0  0000017C   [8]  C0 00 00 00 00 00 00 00
 (1709187309.648349)  vcan0  000001A3   [8]  00 00 00 00 00 00 00 00
 (1709187309.676898)  vcan0  0000014A   [8]  01 1D 00 00 00 00 00 00
 (1709187309.677477)  vcan0  0000017C   [8]  C0 00 00 00 00 00 00 00
 (1709187309.678112)  vcan0  000001A3   [8]  00 00 00 00 00 00 00 00
 (1709187309.697469)  vcan0  0000014A   [8]  01 1D 00 00 00 00 00 00
 (1709187309.698387)  vcan0  0000017C   [8]  C0 00 00 00 00 00 00 00
 (1709187309.699072)  vcan0  000001A3   [8]  00 00 00 00 00 00 00 00
 (1709187309.732423)  vcan0  0000014A   [8]  01 1D 00 00 00 00 00 00
 (1709187309.733198)  vcan0  0000017C   [8]  C0 00 00 00 00 00 00 00
 (1709187309.733939)  vcan0  000001A3   [8]  00 00 00 00 00 00 00 00
 (1709187309.755300)  vcan0  0000014A   [8]  01 1D 00 00 00 00 00 00
 (1709187309.755915)  vcan0  0000017C   [8]  C0 00 00 00 00 00 00 00
 (1709187309.756739)  vcan0  000001A3   [8]  00 00 00 00 00 00 00 00
 (1709187309.779908)  vcan0  0000014A   [8]  01 1D 00 00 00 00 00 00
 (1709187309.780688)  vcan0  0000017C   [8]  C0 00 00 00 00 00 00 00
 (1709187309.781180)  vcan0  000001A3   [8]  00 00 00 00 00 00 00 00
 (1709187309.804221)  vcan0  0000014A   [8]  01 1D 00 00 00 00 00 00
 (1709187309.804837)  vcan0  0000017C   [8]  C0 00 00 00 00 00 00 00
 (1709187309.805385)  vcan0  000001A3   [8]  00 00 00 00 00 00 00 00
 (1709187309.834369)  vcan0  0000014A   [8]  01 1D 00 00 00 00 00 00
 (1709187309.835355)  vcan0  0000017C   [8]  C0 00 00 00 00 00 00 00
 (1709187309.844007)  vcan0  000001A3   [8]  00 00 00 00 00 00 00 00
 (1709187309.861272)  vcan0  0000014A   [8]  01 1D 00 00 00 00 00 00
 (1709187309.862026)  vcan0  0000017C   [8]  C0 00 00 00 00 00 00 00
 (1709187309.862572)  vcan0  000001A3   [8]  00 00 00 00 00 00 00 00
 (1709187309.883323)  vcan0  0000014A   [8]  01 1D 00 00 00 00 00 00
 (1709187309.884357)  vcan0  0000017C   [8]  C0 00 00 00 00 00 00 00
 (1709187309.885489)  vcan0  000001A3   [8]  00 00 00 00 00 00 00 00
 (1709187309.912518)  vcan0  0000014A   [8]  01 1D 00 00 00 00 00 00
 (1709187309.913989)  vcan0  0000017C   [8]  C0 00 00 00 00 00 00 00
 (1709187309.914959)  vcan0  000001A3   [8]  00 00 00 00 00 00 00 00
 (1709187309.934478)  vcan0  0000014A   [8]  01 1D 00 00 00 00 00 00
 (1709187309.935604)  vcan0  0000017C   [8]  C0 00 00 00 00 00 00 00
 (1709187309.936335)  vcan0  000001A3   [8]  00 00 00 00 00 00 00 00
 (1709187309.962270)  vcan0  0000014A   [8]  01 1D 00 00 00 00 00 00
 (1709187309.963028)  vcan0  0000017C   [8]  C0 00 00 00 00 00 00 00
 (1709187309.963550)  vcan0  000001A3   [8]  00 00 00 00 00 00 00 00
 (1709187309.998627)  vcan0  0000014A   [8]  01 1D 00 00 00 00 00 00
 (1709187309.999200)  vcan0  0000017C   [8]  C0 00 00 00 00 00 00 00
 (1709187309.999623)  vcan0  000001A3   [8]  00 00 00 00 00 00 00 00
 (1709187310.045214)  vcan0  0000014A   [8]  01 1D 00 00 00 00 00 00
 (1709187310.046291)  vcan0  0000017C   [8]  C0 00 00 00 00 00 00 00
 (1709187310.047045)  vcan0  000001A3   [8]  00 00 00 00 00 00 00 00
 (1709187310.079446)  vcan0  0000014A   [8]  01 1D 00 00 00 00 00 00
 (1709187310.080478)  vcan0  0000017C   [8]  C0 00 00 00 00 00 00 00
 (1709187310.081213)  vcan0  000001A3   [8]  00 00 00 00 00 00 00 00
 (1709187310.100193)  vcan0  0000014A   [8]  01 1D 00 00 00 00 00 00
 (1709187310.101470)  vcan0  0000017C   [8]  C0 00 00 00 00 00 00 00
 (1709187310.102372)  vcan0  000001A3   [8]  00 00 00 00 00 00 00 00
 (1709187310.131047)  vcan0  0000014A   [8]  01 1D 00 00 00 00 00 00
 (1709187310.132145)  vcan0  0000017C   [8]  C0 00 00 00 00 00 00 00
 (1709187310.133036)  vcan0  000001A3   [8]  00 00 00 00 00 00 00 00
 (1709187310.151108)  vcan0  0000014A   [8]  01 1D 00 00 00 00 00 00
 (1709187310.152111)  vcan0  0000017C   [8]  C0 00 00 00 00 00 00 00
 (1709187310.152759)  vcan0  000001A3   [8]  00 00 00 00 00 00 00 00
 (1709187310.178172)  vcan0  0000014A   [8]  01 1D 00 00 00 00 00 00
 (1709187310.178779)  vcan0  0000017C   [8]  C0 00 00 00 00 00 00 00
 (1709187310.179291)  vcan0  000001A3   [8]  00 00 00 00 00 00 00 00
 (1709187310.210598)  vcan0  0000014A   [8]  01 1D 00 00 00 00 00 00
 (1709187310.211346)  vcan0  0000017C   [8]  C0 00 00 00 00 00 00 00
 (1709187310.211933)  vcan0  000001A3   [8]  00 00 00 00 00 00 00 00
 (1709187310.239143)  vcan0  0000014A   [8]  01 1D 00 00 00 00 00 00
 (1709187310.242499)  vcan0  0000017C   [8]  C0 00 00 00 00 00 00 00
 (1709187310.243666)  vcan0  000001A3   [8]  00 00 00 00 00 00 00 00
 (1709187310.291455)  vcan0  0000014A   [8]  01 1D 00 00 00 00 00 00
 (1709187310.292495)  vcan0  0000017C   [8]  C0 00 00 00 00 00 00 00
 (1709187310.293162)  vcan0  000001A3   [8]  00 00 00 00 00 00 00 00
 (1709187310.321344)  vcan0  0000014A   [8]  01 1D 00 00 00 00 00 00
 (1709187310.324874)  vcan0  0000017C   [8]  C0 00 00 00 00 00 00 00
 (1709187310.325991)  vcan0  000001A3   [8]  00 00 00 00 00 00 00 00
 (1709187310.342704)  vcan0  0000014A   [8]  01 1D 00 00 00 00 00 00
 (1709187310.343436)  vcan0  0000017C   [8]  C0 00 00 00 00 00 00 00
 (1709187310.343966)  vcan0  000001A3   [8]  00 00 00 00 00 00 00 00
 (1709187310.376259)  vcan0  0000014A   [8]  01 1D 00 00 00 00 00 00
 (1709187310.377172)  vcan0  0000017C   [8]  C0 00 00 00 00 00 00 00
 (1709187310.377864)  vcan0  000001A3   [8]  00 00 00 00 00 00 00 00
 (1709187310.395576)  vcan0  0000014A   [8]  01 1D 00 00 00 00 00 00
 (1709187310.396319)  vcan0  0000017C   [8]  C0 00 00 00 00 00 00 00
 (1709187310.396947)  vcan0  000001A3   [8]  00 00 00 00 00 00 00 00
 (1709187310.422082)  vcan0  0000014A   [8]  01 1D 00 00 00 00 00 00
 (1709187310.423763)  vcan0  0000017C   [8]  C0 00 00 00 00 00 00 00
 (1709187310.424840)  vcan0  000001A3   [8]  00 00 00 00 00 00 00 00
 (1709187310.445785)  vcan0  0000014A   [8]  01 1D 00 00 00 00 00 00
 (1709187310.446676)  vcan0  0000017C   [8]  C0 00 00 00 00 00 00 00
 (1709187310.447310)  vcan0  000001A3   [8]  00 00 00 00 00 00 00 00
 (1709187310.471229)  vcan0  0000014A   [8]  01 1D 00 00 00 00 00 00
 (1709187310.472444)  vcan0  0000017C   [8]  C0 00 00 00 00 00 00 00
 (1709187310.473813)  vcan0  000001A3   [8]  00 00 00 00 00 00 00 00
 (1709187310.501993)  vcan0  0000014A   [8]  01 1D 00 00 00 00 00 00
 (1709187310.502743)  vcan0  0000017C   [8]  C0 00 00 00 00 00 00 00
 (1709187310.503325)  vcan0  000001A3   [8]  00 00 00 00 00 00 00 00
 (1709187310.528945)  vcan0  0000014A   [8]  01 1D 00 00 00 00 00 00
 (1709187310.530000)  vcan0  0000017C   [8]  C0 00 00 00 00 00 00 00
 (1709187310.530517)  vcan0  000001A3   [8]  00 00 00 00 00 00 00 00
 (1709187310.549730)  vcan0  0000014A   [8]  01 1D 00 00 00 00 00 00
 (1709187310.550509)  vcan0  0000017C   [8]  C0 00 00 00 00 00 00 00
 (1709187310.550961)  vcan0  000001A3   [8]  00 00 00 00 00 00 00 00
 (1709187310.580273)  vcan0  0000014A   [8]  01 1D 00 00 00 00 00 00
 (1709187310.581088)  vcan0  0000017C   [8]  C0 00 00 00 00 00 00 00
 (1709187310.582119)  vcan0  000001A3   [8]  00 00 00 00 00 00 00 00
 (1709187310.604670)  vcan0  0000014A   [8]  01 1D 00 00 00 00 00 00
 (1709187310.605419)  vcan0  0000017C   [8]  C0 00 00 00 00 00 00 00
 (1709187310.606137)  vcan0  000001A3   [8]  00 00 00 00 00 00 00 00
 (1709187310.628293)  vcan0  0000014A   [8]  01 1D 00 00 00 00 00 00
 (1709187310.628911)  vcan0  0000017C   [8]  C0 00 00 00 00 00 00 00
 (1709187310.629391)  vcan0  000001A3   [8]  00 00 00 00 00 00 00 00
 (1709187310.655792)  vcan0  0000014A   [8]  01 1D 00 00 00 00 00 00
 (1709187310.657285)  vcan0  0000017C   [8]  C0 00 00 00 00 00 00 00
 (1709187310.658428)  vcan0  000001A3   [8]  00 00 00 00 00 00 00 00
 (1709187310.684658)  vcan0  0000014A   [8]  01 1D 00 00 00 00 00 00
 (1709187310.685601)  vcan0  0000017C   [8]  C0 00 00 00 00 00 00 00
 (1709187310.686255)  vcan0  000001A3   [8]  00 00 00 00 00 00 00 00
 (1709187310.705147)  vcan0  0000014A   [8]  01 1D 00 00 00 00 00 00
 (1709187310.706058)  vcan0  0000017C   [8]  C0 00 00 00 00 00 00 00
 (1709187310.706667)  vcan0  000001A3   [8]  00 00 00 00 00 00 00 00
 (1709187310.736342)  vcan0  0000014A   [8]  01 1D 00 00 00 00 00 00
 (1709187310.737775)  vcan0  0000017C   [8]  C0 00 00 00 00 00 00 00
 (1709187310.738485)  vcan0  000001A3   [8]  00 00 00 00 00 00 00 00
 (1709187310.759743)  vcan0  0000014A   [8]  01 1D 00 00 00 00 00 00
 (1709187310.760624)  vcan0  0000017C   [8]  C0 00 00 00 00 00 00 00
 (1709187310.761604)  vcan0  000001A3   [8]  00 00 00 00 00 00 00 00
 (1709187310.786088)  vcan0  0000014A   [8]  01 1D 00 00 00 00 00 00
 (1709187310.786963)  vcan0  0000017C   [8]  C0 00 00 00 00 00 00 00
 (1709187310.787590)  vcan0  000001A3   [8]  00 00 00 00 00 00 00 00
 (1709187310.813149)  vcan0  0000014A   [8]  01 1D 00 00 00 00 00 00
 (1709187310.814779)  vcan0  0000017C   [8]  C0 00 00 00 00 00 00 00
 (1709187310.820618)  vcan0  000001A3   [8]  00 00 00 00 00 00 00 00
 (1709187310.844333)  vcan0  0000014A   [8]  01 1D 00 00 00 00 00 00
 (1709187310.845299)  vcan0  0000017C   [8]  C0 00 00 00 00 00 00 00
 (1709187310.846333)  vcan0  000001A3   [8]  00 00 00 00 00 00 00 00
 (1709187310.868812)  vcan0  0000014A   [8]  01 1D 00 00 00 00 00 00
 (1709187310.869982)  vcan0  0000017C   [8]  C0 00 00 00 00 00 00 00
 (1709187310.870674)  vcan0  000001A3   [8]  00 00 00 00 00 00 00 00
 (1709187310.896685)  vcan0  0000014A   [8]  01 1D 00 00 00 00 00 00
 (1709187310.897390)  vcan0  0000017C   [8]  C0 00 00 00 00 00 00 00
 (1709187310.897915)  vcan0  000001A3   [8]  00 00 00 00 00 00 00 00
 (1709187310.925644)  vcan0  0000014A   [8]  01 1D 00 00 00 00 00 00
 (1709187310.926959)  vcan0  0000017C   [8]  C0 00 00 00 00 00 00 00
 (1709187310.927741)  vcan0  000001A3   [8]  00 00 00 00 00 00 00 00
 (1709187310.954241)  vcan0  0000014A   [8]  01 1D 00 00 00 00 00 00
 (1709187310.954861)  vcan0  0000017C   [8]  C0 00 00 00 00 00 00 00
 (1709187310.955373)  vcan0  000001A3   [8]  00 00 00 00 00 00 00 00
 (1709187311.000589)  vcan0  0000014A   [8]  01 1D 00 00 00 00 00 00
 (1709187311.001550)  vcan0  0000017C   [8]  C0 00 00 00 00 00 00 00
 (1709187311.002169)  vcan0  000001A3   [8]  00 00 00 00 00 00 00 00
 (1709187311.031586)  vcan0  0000014A   [8]  01 1D 00 00 00 00 00 00
 (1709187311.032751)  vcan0  0000017C   [8]  C0 00 00 00 00 00 00 00
 (1709187311.033498)  vcan0  000001A3   [8]  00 00 00 00 00 00 00 00
 (1709187311.056155)  vcan0  0000014A   [8]  01 1D 00 00 00 00 00 00
 (1709187311.057551)  vcan0  0000017C   [8]  C0 00 00 00 00 00 00 00
 (1709187311.058221)  vcan0  000001A3   [8]  00 00 00 00 00 00 00 00
 (1709187311.077433)  vcan0  0000014A   [8]  01 1D 00 00 00 00 00 00
 (1709187311.078528)  vcan0  0000017C   [8]  C0 00 00 00 00 00 00 00
 (1709187311.079287)  vcan0  000001A3   [8]  00 00 00 00 00 00 00 00
 (1709187311.105172)  vcan0  0000014A   [8]  01 1D 00 00 00 00 00 00
 (1709187311.107076)  vcan0  0000017C   [8]  C0 00 00 00 00 00 00 00
 (1709187311.108127)  vcan0  000001A3   [8]  00 00 00 00 00 00 00 00
 (1709187311.136024)  vcan0  0000014A   [8]  01 1D 00 00 00 00 00 00
 (1709187311.136690)  vcan0  0000017C   [8]  C0 00 00 00 00 00 00 00
 (1709187311.137156)  vcan0  000001A3   [8]  00 00 00 00 00 00 00 00
 (1709187311.165215)  vcan0  0000014A   [8]  01 1D 00 00 00 00 00 00
 (1709187311.166197)  vcan0  0000017C   [8]  C0 00 00 00 00 00 00 00
 (1709187311.167238)  vcan0  000001A3   [8]  00 00 00 00 00 00 00 00
 (1709187311.214670)  vcan0  0000014A   [8]  01 1D 00 00 00 00 00 00
 (1709187311.215277)  vcan0  0000017C   [8]  C0 00 00 00 00 00 00 00
 (1709187311.216021)  vcan0  000001A3   [8]  00 00 00 00 00 00 00 00
 (1709187311.241266)  vcan0  0000014A   [8]  01 1D 00 00 00 00 00 00
 (1709187311.242684)  vcan0  0000017C   [8]  C0 00 00 00 00 00 00 00
 (1709187311.243461)  vcan0  000001A3   [8]  00 00 00 00 00 00 00 00
 (1709187311.263956)  vcan0  0000014A   [8]  01 1D 00 00 00 00 00 00
 (1709187311.264820)  vcan0  0000017C   [8]  C0 00 00 00 00 00 00 00
 (1709187311.265425)  vcan0  000001A3   [8]  00 00 00 00 00 00 00 00
 (1709187311.298928)  vcan0  0000014A   [8]  01 1D 00 00 00 00 00 00
 (1709187311.299596)  vcan0  0000017C   [8]  C0 00 00 00 00 00 00 00
 (1709187311.300445)  vcan0  000001A3   [8]  00 00 00 00 00 00 00 00
 (1709187311.326759)  vcan0  0000014A   [8]  01 1D 00 00 00 00 00 00
 (1709187311.327744)  vcan0  0000017C   [8]  C0 00 00 00 00 00 00 00
 (1709187311.328354)  vcan0  000001A3   [8]  00 00 00 00 00 00 00 00
 (1709187311.346916)  vcan0  0000014A   [8]  01 1D 00 00 00 00 00 00
 (1709187311.347724)  vcan0  0000017C   [8]  C0 00 00 00 00 00 00 00
 (1709187311.348369)  vcan0  000001A3   [8]  00 00 00 00 00 00 00 00
 (1709187311.374885)  vcan0  0000014A   [8]  01 1D 00 00 00 00 00 00
 (1709187311.376261)  vcan0  0000017C   [8]  C0 00 00 00 00 00 00 00
 (1709187311.376826)  vcan0  000001A3   [8]  00 00 00 00 00 00 00 00
 (1709187311.404310)  vcan0  0000014A   [8]  01 1D 00 00 00 00 00 00
 (1709187311.405053)  vcan0  0000017C   [8]  C0 00 00 00 00 00 00 00
 (1709187311.405758)  vcan0  000001A3   [8]  00 00 00 00 00 00 00 00
 (1709187311.429208)  vcan0  0000014A   [8]  01 1D 00 00 00 00 00 00
 (1709187311.430167)  vcan0  0000017C   [8]  C0 00 00 00 00 00 00 00
 (1709187311.430864)  vcan0  000001A3   [8]  00 00 00 00 00 00 00 00
 (1709187311.450176)  vcan0  0000014A   [8]  01 1D 00 00 00 00 00 00
 (1709187311.451147)  vcan0  0000017C   [8]  C0 00 00 00 00 00 00 00
 (1709187311.451806)  vcan0  000001A3   [8]  00 00 00 00 00 00 00 00
 (1709187311.482279)  vcan0  0000014A   [8]  01 1D 00 00 00 00 00 00
 (1709187311.483381)  vcan0  0000017C   [8]  C0 00 00 00 00 00 00 00
 (1709187311.484134)  vcan0  000001A3   [8]  00 00 00 00 00 00 00 00
 (1709187311.514031)  vcan0  0000014A   [8]  01 1D 00 00 00 00 00 00
 (1709187311.514907)  vcan0  0000017C   [8]  C0 00 00 00 00 00 00 00
 (1709187311.515428)  vcan0  000001A3   [8]  00 00 00 00 00 00 00 00
 (1709187311.540035)  vcan0  0000014A   [8]  01 1D 00 00 00 00 00 00
 (1709187311.540716)  vcan0  0000017C   [8]  C0 00 00 00 00 00 00 00
 (1709187311.541155)  vcan0  000001A3   [8]  00 00 00 00 00 00 00 00
 (1709187311.587918)  vcan0  0000014A   [8]  01 1D 00 00 00 00 00 00
 (1709187311.588551)  vcan0  0000017C   [8]  C0 00 00 00 00 00 00 00
 (1709187311.589039)  vcan0  000001A3   [8]  00 00 00 00 00 00 00 00
 (1709187311.616867)  vcan0  0000014A   [8]  01 1D 00 00 00 00 00 00
 (1709187311.617826)  vcan0  0000017C   [8]  C0 00 00 00 00 00 00 00
 (1709187311.618338)  vcan0  000001A3   [8]  00 00 00 00 00 00 00 00
 (1709187311.644382)  vcan0  0000014A   [8]  01 1D 00 00 00 00 00 00
 (1709187311.645306)  vcan0  0000017C   [8]  C0 00 00 00 00 00 00 00
 (1709187311.646118)  vcan0  000001A3   [8]  00 00 00 00 00 00 00 00
 (1709187311.666381)  vcan0  0000014A   [8]  01 1D 00 00 00 00 00 00
 (1709187311.667002)  vcan0  0000017C   [8]  C0 00 00 00 00 00 00 00
 (1709187311.667523)  vcan0  000001A3   [8]  00 00 00 00 00 00 00 00
 (1709187311.694903)  vcan0  0000014A   [8]  01 1D 00 00 00 00 00 00
 (1709187311.695504)  vcan0  0000017C   [8]  C0 00 00 00 00 00 00 00
 (1709187311.695946)  vcan0  000001A3   [8]  00 00 00 00 01 00 00 00
 (1709187311.717838)  vcan0  0000014A   [8]  01 1D 00 00 00 00 00 00
 (1709187311.718415)  vcan0  0000017C   [8]  C0 00 00 00 00 00 00 00
 (1709187311.719144)  vcan0  000001A3   [8]  00 00 00 00 01 00 00 00
 (1709187311.751713)  vcan0  0000014A   [8]  01 1D 00 00 00 00 00 00
 (1709187311.752293)  vcan0  0000017C   [8]  C0 00 00 00 00 00 00 00
 (1709187311.752732)  vcan0  000001A3   [8]  00 00 00 00 01 00 00 00
 (1709187311.769745)  vcan0  0000014A   [8]  01 1D 00 00 00 00 00 00
 (1709187311.770387)  vcan0  0000017C   [8]  C0 00 00 00 00 00 00 00
 (1709187311.770873)  vcan0  000001A3   [8]  00 00 00 00 01 00 00 00
 (1709187311.799937)  vcan0  0000014A   [8]  01 1D 00 00 00 00 00 00
 (1709187311.800800)  vcan0  0000017C   [8]  C0 00 00 00 00 00 00 00
 (1709187311.801424)  vcan0  000001A3   [8]  00 00 00 00 01 00 00 00
 (1709187311.831875)  vcan0  0000014A   [8]  01 1D 00 00 00 00 00 00
 (1709187311.832632)  vcan0  0000017C   [8]  C0 00 00 00 00 00 00 00
 (1709187311.833180)  vcan0  000001A3   [8]  00 00 00 00 01 00 00 00
 (1709187311.854391)  vcan0  0000014A   [8]  01 1D 00 00 00 00 00 00
 (1709187311.855538)  vcan0  0000017C   [8]  C0 00 00 00 00 00 00 00
 (1709187311.856503)  vcan0  000001A3   [8]  00 00 00 00 01 00 00 00
 (1709187311.880851)  vcan0  0000014A   [8]  01 1D 00 00 00 00 00 00
 (1709187311.882864)  vcan0  0000017C   [8]  C0 00 00 00 00 00 00 00
 (1709187311.883532)  vcan0  000001A3   [8]  00 00 00 00 01 00 00 00
 (1709187311.930126)  vcan0  0000014A   [8]  01 1C 00 00 00 00 00 00
 (1709187311.930981)  vcan0  0000017C   [8]  C0 00 00 00 00 00 00 00
 (1709187311.931618)  vcan0  000001A3   [8]  00 00 00 00 01 00 00 00
 (1709187311.959215)  vcan0  0000014A   [8]  01 1C 00 00 00 00 00 00
 (1709187311.959898)  vcan0  0000017C   [8]  C0 00 00 00 00 00 00 00
 (1709187311.960542)  vcan0  000001A3   [8]  00 00 00 00 01 00 00 00
 (1709187311.981957)  vcan0  0000014A   [8]  01 1C 00 00 00 00 00 00
 (1709187311.982765)  vcan0  0000017C   [8]  C0 00 00 00 00 00 00 00
 (1709187311.983478)  vcan0  000001A3   [8]  00 00 00 00 01 00 00 00
 (1709187312.011385)  vcan0  0000014A   [8]  01 1C 00 00 00 00 00 00
 (1709187312.012330)  vcan0  0000017C   [8]  C0 00 00 00 00 00 00 00
 (1709187312.012948)  vcan0  000001A3   [8]  00 00 00 00 01 00 00 00
 (1709187312.037981)  vcan0  0000014A   [8]  01 1C 00 00 00 00 00 00
 (1709187312.038875)  vcan0  0000017C   [8]  C0 00 00 00 00 00 00 00
 (1709187312.039771)  vcan0  000001A3   [8]  00 00 00 00 01 00 00 00
 (1709187312.062567)  vcan0  0000014A   [8]  01 1C 00 00 00 00 00 00
 (1709187312.063698)  vcan0  0000017C   [8]  C0 00 00 00 00 00 00 00
 (1709187312.064462)  vcan0  000001A3   [8]  00 00 00 00 01 00 00 00
 (1709187312.096117)  vcan0  0000014A   [8]  01 1C 00 00 00 00 00 00
 (1709187312.096840)  vcan0  0000017C   [8]  C0 00 00 00 00 00 00 00
 (1709187312.097533)  vcan0  000001A3   [8]  00 00 00 00 01 00 00 00
 (1709187312.122850)  vcan0  0000014A   [8]  01 1C 00 00 00 00 00 00
 (1709187312.124767)  vcan0  0000017C   [8]  C0 00 00 00 00 00 00 00
 (1709187312.125567)  vcan0  000001A3   [8]  00 00 00 00 01 00 00 00
 (1709187312.146390)  vcan0  0000014A   [8]  01 1B 00 00 00 00 00 00
 (1709187312.147546)  vcan0  0000017C   [8]  C0 00 00 00 00 00 00 00
 (1709187312.148061)  vcan0  000001A3   [8]  00 00 00 00 01 00 00 00
 (1709187312.176778)  vcan0  0000014A   [8]  01 1B 00 00 00 00 00 00
 (1709187312.177603)  vcan0  0000017C   [8]  C0 00 00 00 00 00 00 00
 (1709187312.178284)  vcan0  000001A3   [8]  00 00 00 00 01 00 00 00
 (1709187312.199416)  vcan0  0000014A   [8]  01 1B 00 00 00 00 00 00
 (1709187312.200108)  vcan0  0000017C   [8]  C0 00 00 00 00 00 00 00
 (1709187312.200632)  vcan0  000001A3   [8]  00 00 00 00 01 00 00 00
 (1709187312.231301)  vcan0  0000014A   [8]  01 1B 00 00 00 00 00 00
 (1709187312.232317)  vcan0  0000017C   [8]  C0 00 00 00 00 00 00 00
